Time [s],Packet ID,MOSI,MISO
2.304880000000000,0,0x02,0x01
2.321421000000000,,0x00,0x00
2.338083000000000,,0xFE,0x00
11.781027999999999,,0xFE,0x00
11.797813000000000,,0x60,0x60
11.814536000000000,,0x60,0x60
11.848045000000001,,0x60,0x60
11.864768000000000,,0x60,0x60
11.883139999999999,,0x60,0x60
11.898216000000000,,0x60,0x60
11.914999999999999,,0x60,0x60
11.931785000000000,,0x70,0x60
11.948448000000001,,0x60,0x60
11.965171000000000,,0x60,0x60
11.981956000000000,,0x60,0x60
11.998680000000000,,0x60,0x60
12.015402999999999,,0x60,0x60
12.032188000000000,,0x00,0x00
12.048851000000001,,0x00,0x00
12.065696000000001,,0x00,0x00
12.082359000000000,,0x00,0x00
12.099144000000001,,0x00,0x00
12.118247999999999,,0x00,0x00
12.132591000000000,,0x00,0x00
12.149315000000000,,0x00,0x00
12.166038000000000,,0x00,0x00
12.768273000000001,,0x00,0x00
12.787316000000001,,0xD0,0xD0
12.801659000000001,,0xF0,0xD0
12.868615000000000,,0xFF,0x00
12.885339000000000,,0x00,0xD0
12.902123000000000,,0xFE,0xD0
12.918847000000000,,0xFF,0xD0
12.935693000000001,,0xFE,0xD0
12.952355000000001,,0xE8,0xD0
12.969139999999999,,0xD0,0xD0
13.036035000000000,,0x00,0x00
13.052758000000001,,0xD8,0xD0
13.069542999999999,,0xD0,0xD0
13.136499000000001,,0x00,0x00
13.153222000000000,,0xD8,0xD0
13.170007000000000,,0xD0,0xD0
13.238671000000000,,0x00,0x00
13.253747000000001,,0xD8,0xD0
13.270471000000001,,0xD0,0xD0
13.337426000000001,,0x00,0x00
13.354150000000001,,0xD8,0xD0
13.370934999999999,,0xD0,0xD0
13.437889999999999,,0x00,0x00
13.454675000000000,,0xD8,0xD0
13.473046999999999,,0xD0,0xD0
13.538354000000000,,0x00,0x00
13.555078000000000,,0xFE,0xD0
13.571802000000000,,0xD0,0xD0
13.588647999999999,,0xD0,0xD0
13.655664000000000,,0x00,0x00
13.672326999999999,,0xD0,0xD0
13.690759000000000,,0x50,0xD0
13.756005999999999,,0x00,0x00
13.772729999999999,,0xFE,0xD0
13.789574999999999,,0x50,0xD0
13.806238000000000,,0xD8,0xD0
13.873194000000000,,0x00,0x00
13.890101000000000,,0xD0,0xD0
13.906701999999999,,0xD0,0xD0
13.974512000000001,,0x00,0x00
13.991114000000000,,0xD4,0xD4
14.007837000000000,,0x54,0xD4
14.040613000000000,,0x00,0x00
22.945347000000002,,0xFE,0xFE
22.948948000000001,,0x60,0x60
22.965610999999999,,0xFE,0x60
22.999058000000002,,0x20,0x60
23.015843000000000,,0x60,0x60
23.032567000000000,,0x60,0x60
23.049289999999999,,0x20,0x60
23.066075000000001,,0x60,0x60
23.082799000000001,,0x60,0x60
23.099522000000000,,0x60,0x60
23.116246000000000,,0x60,0x60
23.135594000000001,,0x70,0x60
23.149754000000001,,0x60,0x60
23.166478000000001,,0x60,0x60
23.183202000000001,,0x00,0x00
23.199925000000000,,0x00,0x00
23.216709999999999,,0x00,0x00
23.233433999999999,,0x00,0x00
23.250218000000000,,0x00,0x00
23.266942000000000,,0x00,0x00
23.283666000000000,,0x00,0x00
23.300388999999999,,0x00,0x00
23.317174000000001,,0x00,0x00
23.367345000000000,,0x00,0x00
23.384069000000000,,0xFD,0x00
23.434362000000000,,0xFD,0x00
23.435642999999999,,0xFD,0xFD
23.436924999999999,,0xFF,0xFD
23.438206999999998,,0xFD,0xFD
23.439488999999998,,0xFD,0xFD
23.440770000000001,,0xFD,0xFD
23.442052000000000,,0xFF,0xFD
23.443334000000000,,0xFD,0xFD
23.444614999999999,,0xFD,0xFD
23.445958000000001,,0xFD,0xB8
23.447301000000000,,0xD6,0x09
23.448582999999999,,0x45,0x5B
23.449864999999999,,0xB6,0xAF
23.451146000000001,,0x39,0x05
23.452428000000001,,0x9F,0x5D
23.453710000000001,,0x13,0xB7
23.454991000000000,,0x8B,0x13
23.456272999999999,,0x05,0x71
23.457616000000002,,0x80,0xD0
23.458898000000001,,0x7E,0xFD
23.460179000000000,,0x7D,0xFD
23.461461000000000,,0xFD,0xFD
23.462743000000000,,0xFE,0xFD
23.464024999999999,,0xFD,0xFD
23.465306000000002,,0xFD,0xFD
23.466588000000002,,0xFD,0xFD
23.467931000000000,,0xFE,0xFD
23.469273999999999,,0x91,0xFD
23.470555000000001,,0xC4,0x83
23.471837000000001,,0x83,0x91
23.473119000000001,,0x50,0x80
23.474401000000000,,0x80,0x82
23.475681999999999,,0xD2,0x8E
23.476963999999999,,0x87,0x8D
23.478245999999999,,0x50,0x50
23.479527999999998,,0x89,0x00
23.480809000000001,,0xC0,0x00
23.482091000000000,,0x82,0x00
23.483433999999999,,0x04,0x00
23.484777000000001,,0xA5,0x06
23.486058000000000,,0xA4,0x4A
23.487340000000000,,0x3B,0x31
23.488621999999999,,0x83,0x68
23.489903999999999,,0xFF,0x0E
23.491185000000002,,0x80,0xB0
23.492467000000001,,0x00,0x80
23.493749000000001,,0xA5,0xFF
23.495031000000001,,0x00,0x4A
23.496312000000000,,0x1B,0x01
23.497655000000002,,0x00,0x34
23.498998000000000,,0x00,0x32
23.500280000000000,,0x00,0x00
23.501560999999999,,0x00,0x19
23.502842999999999,,0xFF,0x02
23.504124999999998,,0x21,0x03
23.505407000000002,,0x27,0x40
23.506688000000000,,0x62,0x3A
23.507970000000000,,0x00,0x3B
23.509252000000000,,0xAC,0x13
23.510534000000000,,0x15,0xEA
23.511814999999999,,0x00,0x78
23.513158000000001,,0x01,0x0B
23.514500999999999,,0x05,0xB6
23.515782999999999,,0x01,0xA8
23.517064000000001,,0x0B,0x69
23.518346000000001,,0x01,0xAA
23.519628000000001,,0x1D,0x6B
23.520910000000001,,0x01,0xBE
23.522190999999999,,0x01,0x6A
23.523472999999999,,0x00,0x96
23.524754999999999,,0x62,0x6A
23.526036000000001,,0x00,0xA3
23.527379000000000,,0xF4,0x69
23.528721999999998,,0xD0,0x96
23.530004000000002,,0x2D,0x31
23.531285000000000,,0xA3,0x91
23.532567000000000,,0x0E,0x23
23.533849000000000,,0x1F,0x0A
23.535131000000000,,0x00,0x05
23.536411999999999,,0x09,0x0F
23.537693999999998,,0x00,0x55
23.538976000000002,,0x1B,0x01
23.540258000000001,,0x00,0x34
23.541539000000000,,0x11,0x00
23.542881999999999,,0x00,0xBD
23.544225000000001,,0x0B,0x00
23.545507000000001,,0x00,0xD3
23.546787999999999,,0x12,0x00
23.548069999999999,,0x00,0xC7
23.549351999999999,,0x0E,0x00
23.550633999999999,,0x24,0xFF
23.551915000000001,,0x00,0x31
23.553197000000001,,0x1E,0x01
23.554479000000001,,0x00,0x13
23.555761000000000,,0x00,0x2E
23.557103000000001,,0x00,0x00
23.558446000000000,,0x02,0x05
23.559728000000000,,0xFF,0x04
23.561010000000000,,0x10,0xFF
23.562290999999998,,0x00,0x59
23.563573000000002,,0x00,0x58
23.564855000000001,,0x00,0x9D
23.566137000000001,,0xAC,0x99
23.567418000000000,,0x15,0xEA
23.568700000000000,,0x00,0x78
23.569982000000000,,0x03,0x09
23.571263999999999,,0x0C,0xB8
23.572606000000000,,0x00,0x07
23.573948999999999,,0xE6,0x67
23.575230999999999,,0x00,0x8A
23.576512999999998,,0xAA,0x68
23.577794000000001,,0x00,0xBD
23.579076000000001,,0xFE,0x67
23.580358000000000,,0x00,0xB4
23.581640000000000,,0xC4,0x67
23.582920999999999,,0x00,0xAF
23.584202999999999,,0x6E,0x67
23.585484999999998,,0x60,0x63
23.586828000000001,,0xDA,0x01
23.588170000000002,,0x03,0x9C
23.589452000000001,,0x00,0x0A
23.590734000000001,,0x00,0x0F
23.592016000000001,,0x00,0x0A
23.593297000000000,,0x0B,0x05
23.594579000000000,,0x00,0x55
23.595860999999999,,0x1E,0x01
23.597142000000002,,0x00,0x13
23.598424000000001,,0x00,0x00
23.599706000000001,,0x00,0xE2
23.600988000000001,,0x0E,0x01
23.602329999999998,,0x00,0x05
23.603673000000001,,0x14,0x00
23.604955000000000,,0x00,0x82
23.606237000000000,,0x0F,0x00
23.607519000000000,,0x33,0x98
23.608799999999999,,0x01,0x68
23.610081999999998,,0x06,0x00
23.611363999999998,,0x26,0xFD
23.612645000000001,,0x00,0x19
23.613927000000000,,0x1C,0x00
23.615209000000000,,0x16,0x17
23.616551999999999,,0x2D,0x17
23.617894000000000,,0xB5,0x2D
23.619176000000000,,0x7B,0x18
23.620457999999999,,0x6E,0x56
23.621739999999999,,0x07,0x62
23.623021000000001,,0xEA,0x57
23.624303000000001,,0x78,0xEA
23.625585000000001,,0x09,0x78
23.626867000000001,,0x5E,0x09
23.628147999999999,,0xED,0x5E
23.629429999999999,,0x73,0xED
23.630711999999999,,0x50,0x64
23.632055000000001,,0x68,0x3F
23.633396999999999,,0x54,0x64
23.634678999999998,,0x77,0xA0
23.635961000000002,,0xA3,0x64
23.637243000000002,,0x69,0x16
23.638524000000000,,0xAA,0x64
23.639806000000000,,0x7C,0x32
23.641088000000000,,0x5D,0x64
23.642370000000000,,0x5B,0x33
23.643650999999998,,0x09,0x76
23.644933000000002,,0x0F,0xE4
23.646276000000000,,0x14,0x1E
23.647618999999999,,0x0A,0x14
23.648900000000001,,0x0F,0x1E
23.650182000000001,,0x59,0x0A
23.651464000000001,,0x01,0x55
23.652746000000000,,0x05,0x00
23.654026999999999,,0x80,0xFD
23.655308999999999,,0xD9,0x00
23.656590999999999,,0x00,0xA1
23.657872999999999,,0x9A,0x00
23.659154000000001,,0x00,0x97
23.660436000000001,,0xCD,0x01
23.661778999999999,,0x00,0x1B
23.663122000000001,,0xC7,0x00
23.664403000000000,,0xC3,0xE8
23.665685000000000,,0x01,0x0E
23.666967000000000,,0x35,0x00
23.668248999999999,,0x49,0xF9
23.669530000000002,,0x00,0x2A
23.670812000000002,,0x1C,0x00
23.672094000000001,,0x18,0x08
23.673376000000001,,0x03,0x03
23.674657000000000,,0x81,0x5A
23.675999999999998,,0x5F,0x8A
23.677343000000000,,0x85,0x6D
23.678625000000000,,0x69,0x65
23.679905999999999,,0xFA,0x5F
23.681187999999999,,0x7C,0xEA
23.682469999999999,,0x0B,0x78
23.683751000000001,,0xB6,0x09
23.685033000000001,,0xB8,0xB8
23.686315000000000,,0x67,0x07
23.687597000000000,,0x92,0x67
23.688877999999999,,0x68,0x73
23.690159999999999,,0x7F,0x68
23.691503000000001,,0x66,0x82
23.692845999999999,,0x2F,0x68
23.694127000000002,,0xE9,0x1C
23.695409000000001,,0x18,0x67
23.696691000000001,,0x68,0x00
23.697973000000001,,0x26,0x66
23.699254000000000,,0x20,0xB2
23.700536000000000,,0xB6,0x54
23.701817999999999,,0x14,0x75
23.703099999999999,,0x0A,0x0F
23.704381000000001,,0x14,0x0A
23.705724000000000,,0x1C,0x0F
23.707066999999999,,0x56,0x14
23.708348999999998,,0x01,0x55
23.709630000000001,,0xB5,0x00
23.710912000000000,,0x00,0xF9
23.712194000000000,,0xED,0x00
23.713476000000000,,0x00,0x9E
23.714756999999999,,0xC0,0x00
23.716038999999999,,0x01,0x94
23.717320999999998,,0x15,0x00
23.718603000000002,,0x01,0xED
23.719884000000000,,0x17,0x01
23.721226999999999,,0x00,0x0C
23.722570000000001,,0x00,0xB0
23.723852000000001,,0x00,0x00
23.725133000000000,,0x00,0x22
23.726414999999999,,0x00,0x00
23.727696999999999,,0x00,0x00
23.728978999999999,,0x00,0x14
23.730260000000001,,0x00,0x14
23.731542000000001,,0x00,0x2D
23.732824000000001,,0x00,0x0A
23.734106000000001,,0x00,0x2D
23.735448000000002,,0x00,0x34
23.736791000000000,,0x00,0x00
23.738073000000000,,0x00,0xAC
23.739355000000000,,0x00,0x15
23.740635999999999,,0x00,0x00
23.741917999999998,,0x00,0x05
23.743200000000002,,0x00,0xD9
23.744482000000001,,0x00,0x02
23.745763000000000,,0x00,0xB1
23.747045000000000,,0x00,0x03
23.748327000000000,,0x00,0x01
23.749607999999998,,0x00,0x02
23.750951000000001,,0x00,0xC6
23.752293999999999,,0x00,0x03
23.753575999999999,,0x00,0x9B
23.754857999999999,,0x00,0x01
23.756139000000001,,0x00,0xC8
23.757421000000001,,0x00,0x6D
23.758703000000001,,0x00,0x8E
23.759983999999999,,0x00,0x23
23.761265999999999,,0x00,0x28
23.762547999999999,,0x00,0x19
23.763829999999999,,0x00,0x00
23.765172000000000,,0x00,0x0D
23.766514999999998,,0x00,0x00
23.767797000000002,,0x00,0x22
23.769079000000001,,0x00,0x00
23.770360000000000,,0x00,0x14
23.771642000000000,,0x00,0x00
23.772924000000000,,0x00,0x14
23.774206000000000,,0x00,0x00
23.775486999999998,,0x00,0x18
23.776769000000002,,0x00,0x00
23.778051000000001,,0x00,0x16
23.779333000000001,,0x00,0x80
23.780674999999999,,0x00,0x00
23.782018000000001,,0x00,0x61
23.783300000000001,,0x00,0x21
23.784582000000000,,0x00,0x00
23.785862999999999,,0x00,0x15
23.787144999999999,,0x00,0x15
23.788426999999999,,0x00,0xBE
23.789708999999998,,0x00,0x0A
23.790990000000001,,0x00,0x27
23.792272000000001,,0x00,0x32
23.793554000000000,,0x00,0x00
23.794896999999999,,0x00,0xEA
23.796239000000000,,0x00,0x78
23.797521000000000,,0x00,0x00
23.798802999999999,,0x00,0x8C
23.800084999999999,,0x00,0x61
23.801366000000002,,0x00,0x00
23.802648000000001,,0x00,0x00
23.803930000000001,,0x00,0x00
23.805212000000001,,0x00,0x00
23.806493000000000,,0x00,0x00
23.807774999999999,,0x00,0x00
23.809056999999999,,0x00,0x00
23.810400000000001,,0x00,0x00
23.811741999999999,,0x00,0x00
23.813023999999999,,0x00,0x00
23.814305999999998,,0x00,0xA4
23.815588000000002,,0x00,0x7F
23.816869000000001,,0x00,0x23
23.818151000000000,,0x00,0x1E
23.819433000000000,,0x00,0x14
23.820715000000000,,0x00,0x00
23.821995999999999,,0x00,0x21
23.823277999999998,,0x00,0x00
23.824621000000000,,0x00,0x61
23.825963999999999,,0x00,0x00
23.827245000000001,,0x00,0x41
23.828527000000001,,0x00,0x00
23.829809000000001,,0x00,0x3B
23.831091000000001,,0x00,0x00
23.832371999999999,,0x00,0x41
23.833653999999999,,0x00,0x00
23.834935999999999,,0x91,0x43
23.836217000000001,,0x84,0x83
23.837499000000001,,0x83,0x91
23.838781000000001,,0x50,0x80
23.840123999999999,,0x80,0x82
23.841467000000002,,0x92,0x8E
23.842748000000000,,0x87,0x8D
23.844030000000000,,0x50,0x50
23.845312000000000,,0x89,0x00
23.846592999999999,,0x80,0x00
23.847874999999998,,0x82,0x00
23.849157000000002,,0x90,0x00
23.850439000000001,,0x84,0x83
23.851720000000000,,0xC3,0x91
23.853002000000000,,0x58,0x80
23.854344999999999,,0x80,0x82
23.855688000000001,,0x92,0x8E
23.856970000000000,,0x87,0x8D
23.858250999999999,,0x58,0x50
23.859532999999999,,0x88,0x00
23.860814999999999,,0x80,0x00
23.862096000000001,,0xC2,0x00
23.863378000000001,,0x83,0x00
23.864660000000001,,0x91,0x83
23.865942000000000,,0x80,0x91
23.867222999999999,,0xC2,0x80
23.868504999999999,,0x8E,0x82
23.869848000000001,,0x8D,0x8E
23.871191000000000,,0x50,0x8D
23.872471999999998,,0x00,0x50
23.873754000000002,,0x00,0x00
23.875036000000001,,0x00,0x00
23.876318000000001,,0x00,0x00
23.877599000000000,,0xC3,0x00
23.878881000000000,,0x99,0x83
23.880163000000000,,0x80,0x91
23.881444999999999,,0x82,0x80
23.882726000000002,,0xCE,0x82
23.884069000000000,,0x8D,0x8E
23.885411999999999,,0x50,0x8D
23.886693999999999,,0x00,0x50
23.887975000000001,,0x00,0x00
23.889257000000001,,0x00,0x00
23.890539000000000,,0x00,0x00
23.891821000000000,,0x00,0x00
23.893101999999999,,0x00,0x91
23.894383999999999,,0x00,0x84
23.895665999999999,,0x00,0x83
23.896947999999998,,0x00,0x50
23.898229000000001,,0x00,0x80
23.899571999999999,,0x00,0x92
23.900915000000001,,0x00,0x87
23.902197000000001,,0x00,0x50
23.903478000000000,,0x00,0x89
23.904760000000000,,0x00,0x80
23.906041999999999,,0x00,0x82
23.907323999999999,,0x00,0x83
23.908605000000001,,0x00,0x91
23.909887000000001,,0x00,0x80
23.911169000000001,,0x00,0x82
23.912451000000001,,0x00,0x8E
23.913792999999998,,0x00,0x8D
23.915136000000000,,0x00,0x50
23.916418000000000,,0x00,0x00
23.917700000000000,,0x00,0x00
23.918980999999999,,0x00,0x00
23.920262999999998,,0x90,0x00
23.921544999999998,,0x80,0x82
23.922827000000002,,0x93,0x92
23.924108000000000,,0x9B,0x82
23.925390000000000,,0x80,0x86
23.926672000000000,,0x93,0x9A
23.927952999999999,,0xC0,0x86
23.929296000000001,,0x70,0x8E
23.930638999999999,,0x50,0x8D
23.931920999999999,,0x50,0x8D
23.933202000000001,,0x50,0x80
23.934484000000001,,0x87,0x50
23.935766000000001,,0x88,0xE3
23.937048000000001,,0x83,0xA7
23.938329000000000,,0xC6,0xA0
23.939610999999999,,0x84,0xA2
23.940892999999999,,0x98,0xAA
23.942174999999999,,0x50,0xE3
23.943517000000000,,0x10,0xA4
23.944859999999998,,0x78,0xAC
23.946141999999998,,0x50,0xE3
23.947424000000002,,0x50,0x80
23.948705000000000,,0xCC,0x50
23.949987000000000,,0x80,0xAB
23.951269000000000,,0x87,0xAB
23.952551000000000,,0x8C,0xE3
23.953831999999998,,0xC0,0x8F
23.955113999999998,,0x99,0x96
23.956396000000002,,0x50,0x8D
23.957678000000001,,0x50,0xAA
23.959019999999999,,0x50,0xA4
23.960363000000001,,0x58,0xAC
23.961645000000001,,0x50,0xAE
23.962927000000001,,0x8C,0x50
23.964207999999999,,0xC4,0xAD
23.965489999999999,,0x9A,0xE7
23.966771999999999,,0x93,0xE7
23.968053999999999,,0x96,0xE7
23.969335000000001,,0xCE,0x9B
23.970617000000001,,0x50,0x50
23.971899000000001,,0x50,0x09
23.973241999999999,,0x50,0x0B
23.974584000000000,,0x70,0x09
23.975866000000000,,0x58,0x02
23.977148000000000,,0x00,0x00
23.978429999999999,,0x00,0x82
23.979711000000002,,0x00,0x87
23.980993000000002,,0x00,0x80
23.982275000000001,,0x00,0x91
23.983557000000001,,0x00,0x8C
23.984838000000000,,0x00,0x80
23.986120000000000,,0x00,0x8D
23.987401999999999,,0x00,0x83
23.988745000000002,,0x00,0x84
23.990086999999999,,0x00,0x91
23.991368999999999,,0x00,0x50
23.992650999999999,,0x00,0x86
23.993932999999998,,0x00,0x8E
23.995214000000001,,0x00,0x8B
23.996496000000000,,0x00,0x83
23.997778000000000,,0x00,0x94
23.999058999999999,,0x00,0x82
24.000340999999999,,0x00,0x8A
24.001622999999999,,0x00,0x50
24.002966000000001,,0x00,0x50
24.004308000000002,,0x00,0x50
24.005590000000002,,0x08,0x50
24.006872000000001,,0x90,0xFF
24.008154000000001,,0x04,0x9F
24.009495999999999,,0x7D,0x07
24.010777999999998,,0xFD,0xFD
24.012060000000002,,0xFE,0xFD
24.013342000000002,,0xFD,0xFD
24.014623000000000,,0xFD,0xFD
24.015905000000000,,0xFD,0x00
24.017187000000000,,0x00,0x00
24.018529999999998,,0x00,0x00
24.019871999999999,,0x00,0x00
24.021153999999999,,0x00,0x00
24.022435999999999,,0x00,0x00
24.023717999999999,,0x00,0x00
24.024999000000001,,0x00,0x2C
24.026281000000001,,0xFF,0xFF
24.027563000000001,,0xFF,0xFF
24.028845000000000,,0x00,0x00
24.030125999999999,,0x00,0x00
24.031407999999999,,0x00,0x00
24.032689999999999,,0x00,0x00
24.034033000000001,,0x00,0x00
24.035374999999998,,0x00,0x00
24.036657000000002,,0x00,0x00
24.037939000000001,,0x00,0x00
24.039221000000001,,0x00,0x00
24.040502000000000,,0x00,0x00
24.041784000000000,,0x00,0x00
24.043066000000000,,0x00,0x00
24.044347999999999,,0x00,0x00
24.045629000000002,,0x00,0x00
24.046911000000001,,0x00,0x00
24.048254000000000,,0x00,0x00
24.049596999999999,,0x00,0x00
24.050878000000001,,0x00,0x00
24.052160000000001,,0x00,0x00
24.053442000000000,,0x00,0x00
24.054724000000000,,0x00,0x00
24.056004999999999,,0x00,0x00
24.057286999999999,,0x00,0x00
24.058568999999999,,0x00,0x00
24.059850999999998,,0x00,0x00
24.061132000000001,,0x00,0x00
24.062414000000000,,0x00,0x00
24.063756999999999,,0x00,0x00
24.065100000000001,,0x00,0x00
24.066381000000000,,0x00,0x00
24.067663000000000,,0x00,0x00
24.068944999999999,,0x00,0x00
24.070226999999999,,0x00,0x00
24.071508000000001,,0x00,0x00
24.072790000000001,,0x00,0x00
24.074072000000001,,0x00,0x00
24.075353000000000,,0x00,0x00
24.076635000000000,,0x00,0x00
24.077978000000002,,0x00,0x00
24.079321000000000,,0x00,0x00
24.080603000000000,,0x00,0x00
24.081883999999999,,0x00,0x00
24.083165999999999,,0x00,0x00
24.084447999999998,,0x00,0x00
24.085729000000001,,0x00,0x00
24.087011000000000,,0x00,0x00
24.088293000000000,,0x00,0x00
24.089575000000000,,0x00,0x00
24.090855999999999,,0x00,0x00
24.092137999999998,,0x00,0x00
24.093481000000001,,0x00,0x00
24.094823999999999,,0x00,0x00
24.096105000000001,,0x00,0x00
24.097387000000001,,0x00,0x00
24.098669000000001,,0x00,0x00
24.099951000000001,,0x00,0x00
24.101232000000000,,0x00,0x00
24.102513999999999,,0x00,0x00
24.103795999999999,,0x00,0x00
24.105077999999999,,0x00,0x00
24.106359000000001,,0x00,0x00
24.107702000000000,,0x00,0x00
24.109044999999998,,0x00,0x00
24.110327000000002,,0x00,0x00
24.111608000000000,,0x00,0x00
24.112890000000000,,0x00,0x00
24.114172000000000,,0x00,0x00
24.115454000000000,,0x00,0x00
24.116734999999998,,0x00,0x00
24.118016999999998,,0x00,0x00
24.119299000000002,,0x00,0x00
24.120581000000001,,0x00,0x00
24.121862000000000,,0x00,0x00
24.123204999999999,,0x00,0x00
24.124548000000001,,0x00,0x00
24.125830000000001,,0x00,0x00
24.127110999999999,,0x00,0x00
24.128392999999999,,0x00,0x00
24.129674999999999,,0x00,0x00
24.130956999999999,,0x00,0x00
24.132238000000001,,0x00,0x00
24.133520000000001,,0x00,0x00
24.134802000000001,,0x00,0x00
24.136084000000000,,0x00,0x00
24.137426000000001,,0x00,0x00
24.138769000000000,,0x00,0x00
24.140051000000000,,0x00,0x00
24.141332999999999,,0x00,0x00
24.142613999999998,,0x00,0x00
24.143896000000002,,0x00,0x00
24.145178000000001,,0x00,0x00
24.146460000000001,,0x00,0x00
24.147741000000000,,0x00,0x00
24.149023000000000,,0x00,0x00
24.150304999999999,,0x00,0x00
24.151586000000002,,0x00,0x00
24.152929000000000,,0x00,0x00
24.154271999999999,,0x00,0x00
24.155553999999999,,0x00,0x00
24.156835999999998,,0x00,0x00
24.158117000000001,,0x00,0x00
24.159399000000001,,0x00,0x00
24.160681000000000,,0x00,0x00
24.161961999999999,,0x00,0x00
24.163243999999999,,0x00,0x00
24.164525999999999,,0x00,0x00
24.165807999999998,,0x00,0x00
24.167149999999999,,0x00,0x00
24.168493000000002,,0x00,0x00
24.169775000000001,,0x00,0x00
24.171057000000001,,0x00,0x00
24.172338000000000,,0x00,0x00
24.173620000000000,,0x00,0x00
24.174901999999999,,0x00,0x00
24.176183999999999,,0x00,0x00
24.177465000000002,,0x00,0x00
24.178747000000001,,0x00,0x00
24.180029000000001,,0x00,0x00
24.181311000000001,,0x00,0x00
24.182652999999998,,0x00,0x00
24.183996000000000,,0x00,0x00
24.185278000000000,,0x00,0x00
24.186560000000000,,0x00,0x00
24.187840999999999,,0x00,0x00
24.189122999999999,,0x00,0x00
24.190404999999998,,0x00,0x00
24.191687000000002,,0x00,0x00
24.192968000000000,,0x00,0x00
24.194250000000000,,0x00,0x00
24.195532000000000,,0x00,0x00
24.196874999999999,,0x00,0x00
24.198217000000000,,0x00,0x00
24.199498999999999,,0x00,0x00
24.200780999999999,,0x00,0x00
24.202062999999999,,0x00,0x00
24.203344000000001,,0x00,0x00
24.204626000000001,,0x00,0x00
24.205908000000001,,0x00,0x00
24.207190000000001,,0x00,0x00
24.208470999999999,,0x00,0x00
24.209752999999999,,0x00,0x00
24.211034999999999,,0x00,0x00
24.212378000000001,,0x00,0x00
24.213719999999999,,0x00,0x00
24.215001999999998,,0x00,0x00
24.216284000000002,,0x00,0x00
24.217566000000001,,0x00,0x00
24.218847000000000,,0x00,0x00
24.220129000000000,,0x00,0x00
24.221411000000000,,0x00,0x00
24.222693000000000,,0x00,0x00
24.223973999999998,,0x00,0x00
24.225256000000002,,0x00,0x00
24.226599000000000,,0x00,0x00
24.227941999999999,,0x00,0x00
24.229223000000001,,0x00,0x00
24.230505000000001,,0x00,0x00
24.231787000000001,,0x00,0x00
24.233069000000000,,0x00,0x00
24.234349999999999,,0x00,0x00
24.235631999999999,,0x00,0x00
24.236913999999999,,0x00,0x00
24.238195000000001,,0x00,0x00
24.239477000000001,,0x00,0x00
24.240759000000001,,0x00,0x00
24.242101999999999,,0x00,0x00
24.243445000000001,,0x00,0x00
24.244726000000000,,0x00,0x00
24.246008000000000,,0x00,0x00
24.247290000000000,,0x00,0x00
24.248570999999998,,0x00,0x00
24.249853000000002,,0x00,0x00
24.251135000000001,,0x00,0x00
24.252417000000001,,0x00,0x00
24.253698000000000,,0x00,0x00
24.254980000000000,,0x00,0x00
24.256322999999998,,0x00,0x00
24.257666000000000,,0x00,0x00
24.258946999999999,,0x00,0x00
24.260228999999999,,0x00,0x00
24.261510999999999,,0x00,0x00
24.262792999999999,,0x00,0x00
24.264074000000001,,0x00,0x00
24.265356000000001,,0x00,0x00
24.266638000000000,,0x00,0x00
24.267920000000000,,0x00,0x00
37.732717000000001,,0x00,0x00
37.749440000000000,,0x00,0x60
37.766224999999999,,0xFF,0x60
37.783009999999997,,0xFE,0x60
37.799733000000003,,0xFE,0x60
37.817495000000001,,0xFE,0x60
37.833181000000003,,0xFE,0x60
37.849964999999997,,0xFE,0x60
37.866689000000001,,0xFF,0x60
37.883474000000000,,0xFE,0x60
37.900136000000003,,0xFE,0x60
37.917287000000002,,0xFE,0x60
37.933644999999999,,0xFE,0x60
37.950367999999997,,0xFE,0x60
37.967213999999998,,0xFF,0x60
37.983938000000002,,0xFE,0x60
38.003103000000003,,0xFE,0x60
38.017324000000002,,0xFE,0x60
38.034047000000001,,0x7E,0x60
38.050770999999997,,0xFE,0x60
38.067556000000003,,0xFE,0x60
38.084279000000002,,0xFE,0x60
38.101368999999998,,0xFE,0x60
38.117787999999997,,0xFE,0x60
38.134511000000003,,0xFE,0x60
38.151235000000000,,0xFE,0x60
38.167959000000003,,0xFE,0x60
38.184742999999997,,0xFE,0x60
38.203969000000001,,0x7E,0x60
38.218190999999997,,0xFE,0x60
38.234974999999999,,0xFE,0x60
38.251699000000002,,0xFE,0x60
38.268422999999999,,0xFE,0x60
38.285513000000002,,0xFE,0x60
38.301931000000003,,0xFF,0x60
38.318655000000000,,0xFE,0x60
38.335439000000001,,0xFE,0x60
38.352162999999997,,0xFF,0x60
38.368887000000001,,0xFE,0x60
38.388052000000002,,0xFE,0x60
38.402394999999999,,0xFF,0x60
38.419119000000002,,0xFE,0x60
38.435842000000001,,0xFE,0x60
38.452627000000000,,0xFF,0x60
38.469717000000003,,0xFE,0x60
38.486074000000002,,0xFE,0x60
38.502859000000001,,0xFF,0x60
38.519582999999997,,0xFE,0x60
38.536306000000003,,0xFE,0x60
38.553091000000002,,0xFF,0x60
38.572439000000003,,0xFE,0x60
38.586537999999997,,0xFE,0x60
38.603323000000003,,0xFF,0x60
38.620047000000000,,0xFE,0x60
38.636769999999999,,0xFE,0x60
38.653494000000002,,0xFE,0x60
38.670645000000000,,0xFE,0x60
38.687002000000000,,0xFE,0x60
38.703726000000003,,0xFE,0x60
38.720509999999997,,0x7E,0x60
38.737234000000001,,0xFE,0x60
38.756459999999997,,0xFE,0x60
38.770741999999998,,0x7E,0x60
38.787466000000002,,0xFE,0x60
38.804189999999998,,0xFE,0x60
38.820974000000000,,0x7E,0x60
38.837698000000003,,0xFE,0x60
38.854787999999999,,0xFF,0x60
38.871206000000001,,0xFE,0x60
38.887929999999997,,0xFE,0x60
38.904654000000001,,0xFE,0x60
38.921438000000002,,0xFE,0x60
38.938161999999998,,0xFE,0x60
38.957388000000002,,0xFE,0x60
38.971609000000001,,0xFE,0x60
38.988394000000000,,0xFE,0x60
39.005118000000003,,0xFE,0x60
39.021841000000002,,0xFE,0x60
39.038992000000000,,0xFE,0x60
39.055349999999997,,0xFE,0x60
39.072073000000003,,0xFE,0x60
39.088858000000002,,0xFF,0x60
39.105581999999998,,0xFE,0x60
39.122304999999997,,0xFE,0x60
39.140920999999999,,0xFE,0x60
39.155875000000002,,0xFE,0x60
39.172598000000001,,0xFE,0x60
39.189321999999997,,0xFF,0x60
39.206046000000001,,0xFE,0x60
39.223928999999998,,0xFF,0x60
39.239553999999998,,0xFF,0x60
39.256278000000002,,0xFE,0x60
39.273001000000001,,0xFE,0x60
39.289847000000002,,0xFF,0x60
39.306510000000003,,0xFE,0x60
39.325003000000002,,0xFE,0x60
39.340018000000001,,0xFF,0x60
39.356802999999999,,0xFE,0x60
39.373465000000003,,0xFE,0x60
39.390250000000002,,0xFF,0x60
39.406973999999998,,0xFE,0x60
39.424857000000003,,0xFE,0x60
39.440482000000003,,0xFF,0x60
39.457205999999999,,0xFE,0x60
39.473928999999998,,0x70,0x60
39.490774999999999,,0xFF,0x60
39.524160999999999,,0x60,0x60
39.540885000000003,,0x60,0x60
39.557730999999997,,0x60,0x60
39.574393000000001,,0x60,0x60
39.591116999999997,,0x60,0x60
39.608207000000000,,0x60,0x60
39.624685999999997,,0x60,0x60
39.641348999999998,,0x60,0x60
39.658071999999997,,0x60,0x60
39.674857000000003,,0x00,0x60
39.691580999999999,,0x00,0x60
39.710073999999999,,0x00,0x00
39.725028000000002,,0x00,0x00
39.741751999999998,,0x00,0x00
39.758597000000002,,0x00,0x00
39.775260000000003,,0x00,0x00
39.792349999999999,,0x00,0x00
39.808706999999998,,0x00,0x00
39.825552999999999,,0x00,0x00
39.842216000000001,,0xFE,0x00
45.384213000000003,,0xFE,0x00
45.400875999999997,,0x62,0x62
45.417659999999998,,0x62,0x62
45.451473999999997,,0x62,0x62
45.467891999999999,,0x62,0x62
45.484555000000000,,0x63,0x62
45.501401000000001,,0x62,0x62
45.518062999999998,,0x72,0x62
45.535885999999998,,0x62,0x62
45.551633000000002,,0x62,0x62
45.568356000000001,,0x72,0x62
45.585019000000003,,0x63,0x62
45.601804000000001,,0x62,0x62
45.618465999999998,,0x72,0x62
45.635739000000001,,0x00,0x00
45.651975000000000,,0x00,0x00
45.668697999999999,,0x00,0x00
45.685482999999998,,0x00,0x00
45.702267999999997,,0x00,0x00
45.718991000000003,,0x00,0x00
45.737485000000000,,0x00,0x00
45.752377000000003,,0x00,0x00
45.769222999999997,,0x00,0x00
89.117278999999996,,0x00,0x00
89.131439000000000,,0xFE,0x62
89.148162999999997,,0xFE,0x62
89.164946999999998,,0xFE,0x62
89.181670999999994,,0xFF,0x62
89.198395000000005,,0xFE,0x62
89.215179000000006,,0xFE,0x62
89.231964000000005,,0xFF,0x62
89.248688000000001,,0xFE,0x62
89.265472000000003,,0xFE,0x62
89.282195999999999,,0xFF,0x62
89.298980999999998,,0xFE,0x62
89.315642999999994,,0xFE,0x62
89.332794000000007,,0xFE,0x62
89.349213000000006,,0xFE,0x62
89.365875000000003,,0xFE,0x62
89.382721000000004,,0xFF,0x62
89.399383999999998,,0xFE,0x62
89.416106999999997,,0xFE,0x62
89.432891999999995,,0xFF,0x62
89.449676999999994,,0xFE,0x62
89.466399999999993,,0xFE,0x62
89.483124000000004,,0xFF,0x62
89.499848000000000,,0xFE,0x62
89.516570999999999,,0xFE,0x62
89.535797000000002,,0xFE,0x62
89.550017999999994,,0x7E,0x62
89.566742000000005,,0xFE,0x62
89.583527000000004,,0xFE,0x62
89.600250000000003,,0xFE,0x62
89.616973999999999,,0xFE,0x62
89.633758999999998,,0xFE,0x62
89.650481999999997,,0xFE,0x62
89.667327999999998,,0xFE,0x62
89.683991000000006,,0xFE,0x62
89.700835999999995,,0xFE,0x62
89.717499000000004,,0xFF,0x62
89.734589000000000,,0xFF,0x62
89.751068000000004,,0xFE,0x62
89.767730999999998,,0xFF,0x62
89.784454999999994,,0x62,0x62
89.801299999999998,,0xFE,0x62
89.834748000000005,,0x62,0x62
89.851410000000001,,0x72,0x62
89.868195000000000,,0x63,0x62
89.884918999999996,,0x62,0x62
89.901702999999998,,0x72,0x62
89.918426999999994,,0x63,0x62
89.935151000000005,,0x62,0x62
89.954376999999994,,0x62,0x62
89.968598000000000,,0x62,0x62
89.985320999999999,,0x00,0x62
90.001983999999993,,0x00,0x62
90.018769000000006,,0x00,0x00
90.035492000000005,,0x00,0x00
90.052216000000001,,0x00,0x00
90.069001000000000,,0x00,0x00
90.085723999999999,,0x00,0x00
90.102508999999998,,0x00,0x00
90.119354999999999,,0x00,0x00
90.136016999999995,,0x00,0x00
90.153167999999994,,0xFE,0x00
91.721406999999999,,0xFE,0x00
91.726595000000003,,0x62,0x62
91.743379000000004,,0xFE,0x62
91.776826999999997,,0x62,0x62
91.793549999999996,,0x72,0x62
91.810700999999995,,0x62,0x62
91.827059000000006,,0x62,0x62
91.843843000000007,,0x72,0x62
91.860628000000005,,0x63,0x62
91.877290000000002,,0x62,0x62
91.894013999999999,,0x62,0x62
91.910737999999995,,0x62,0x62
91.927582999999998,,0x62,0x62
91.944246000000007,,0x62,0x62
91.961031000000006,,0x00,0x00
91.977693000000002,,0x00,0x00
91.994416999999999,,0x00,0x00
92.011263000000000,,0x00,0x00
92.030428000000001,,0x00,0x00
92.044649000000007,,0x00,0x00
92.061373000000003,,0x00,0x00
92.078096000000002,,0x00,0x00
92.094881000000001,,0x00,0x00
92.145112999999995,,0x00,0x00
92.161837000000006,,0xFD,0x00
92.212252000000007,,0xFD,0x00
92.213532999999998,,0xFD,0xFD
92.214815000000002,,0xFD,0xFD
92.216097000000005,,0xFD,0xFD
92.217378999999994,,0xFD,0xFD
92.218660000000000,,0xFD,0xFD
92.219942000000003,,0xFF,0xFD
92.221224000000007,,0xFD,0xFD
92.222505999999996,,0xFD,0xFD
92.223848000000004,,0xFD,0x54
92.225190999999995,,0x22,0x4E
92.226472999999999,,0x3B,0x4A
92.227755000000002,,0x56,0x48
92.229035999999994,,0x73,0x48
92.230317999999997,,0x9A,0x4A
92.231600000000000,,0xB3,0x4E
92.232882000000004,,0xD6,0x54
92.234162999999995,,0xFB,0x5B
92.235506000000001,,0x21,0x64
92.236788000000004,,0x49,0xFD
92.238069999999993,,0xFD,0xFD
92.239350999999999,,0xFD,0xFD
92.240633000000003,,0xFF,0xFD
92.241915000000006,,0xFD,0xFD
92.243195999999998,,0xFD,0xFD
92.244478000000001,,0xFD,0xFD
92.245821000000007,,0xFF,0xFD
92.247163999999998,,0x91,0xFD
92.248446000000001,,0x84,0x83
92.249726999999993,,0x83,0x91
92.251008999999996,,0x50,0x80
92.252291000000000,,0x80,0x82
92.253572000000005,,0x12,0x8E
92.254853999999995,,0x87,0x8D
92.256135999999998,,0x50,0x50
92.257418000000001,,0x89,0x00
92.258698999999993,,0xC0,0x00
92.260041999999999,,0x82,0x00
92.261385000000004,,0x06,0x00
92.262666999999993,,0x24,0x06
92.263947999999999,,0x33,0x31
92.265230000000003,,0x83,0x68
92.266512000000006,,0x4B,0x0E
92.267793999999995,,0xFF,0xB0
92.269075000000001,,0x80,0x80
92.270357000000004,,0x00,0xA5
92.271638999999993,,0x24,0xFF
92.272920999999997,,0x00,0x31
92.274202000000002,,0x1E,0x01
92.275544999999994,,0x00,0x13
92.276888000000000,,0x00,0x2E
92.278170000000003,,0x00,0x00
92.279450999999995,,0x02,0x05
92.280732999999998,,0xFF,0x04
92.282015000000001,,0x10,0xFF
92.283297000000005,,0x00,0x59
92.284577999999996,,0x00,0x58
92.285860000000000,,0x00,0x9D
92.287142000000003,,0xAC,0x99
92.288424000000006,,0x15,0xEA
92.289766000000000,,0x80,0x78
92.291109000000006,,0x03,0x09
92.292390999999995,,0x0C,0xB8
92.293672999999998,,0x00,0x07
92.294954000000004,,0xE6,0x67
92.296235999999993,,0x00,0x8A
92.297517999999997,,0xAA,0x68
92.298800000000000,,0x00,0xBD
92.300081000000006,,0xFA,0x67
92.301362999999995,,0x00,0xB4
92.302644999999998,,0xC4,0x67
92.303927000000002,,0x00,0xAF
92.305268999999996,,0x7E,0x67
92.306612000000001,,0x60,0x63
92.307894000000005,,0xDA,0x01
92.309175999999994,,0x23,0x9C
92.310457000000000,,0x00,0x0A
92.311739000000003,,0x00,0x0F
92.313021000000006,,0x00,0x0A
92.314301999999998,,0x0B,0x05
92.315584000000001,,0x00,0x55
92.316866000000005,,0x1F,0x01
92.318147999999994,,0x00,0x13
92.319490000000002,,0x10,0x00
92.320832999999993,,0x00,0xE2
92.322114999999997,,0x0F,0x01
92.323397000000000,,0x00,0x05
92.324678000000006,,0x14,0x00
92.325959999999995,,0x00,0x82
92.327241999999998,,0x0F,0x00
92.328524000000002,,0x33,0x98
92.329804999999993,,0x81,0x68
92.331086999999997,,0x05,0x00
92.332369000000000,,0x27,0xFD
92.333651000000003,,0x00,0x19
92.334992999999997,,0x14,0x00
92.336336000000003,,0x1C,0x17
92.337618000000006,,0x2F,0x17
92.338899999999995,,0x35,0x2D
92.340181000000001,,0xBB,0x18
92.341463000000005,,0x7D,0x56
92.342744999999994,,0x07,0x62
92.344026999999997,,0xEA,0x57
92.345308000000003,,0x38,0xEA
92.346590000000006,,0x0D,0x78
92.347871999999995,,0x5F,0x09
92.349215000000001,,0xED,0x5E
92.350556999999995,,0xA7,0xED
92.351838999999998,,0x58,0x64
92.353121000000002,,0x68,0x3F
92.354403000000005,,0x54,0x64
92.355683999999997,,0x67,0xA0
92.356966000000000,,0xA3,0x64
92.358248000000003,,0x69,0x16
92.359530000000007,,0x2A,0x64
92.360810999999998,,0x68,0x32
92.362093000000002,,0x5F,0x64
92.363375000000005,,0x5B,0x33
92.364717999999996,,0x29,0x76
92.366060000000004,,0x8F,0xE4
92.367341999999994,,0x1E,0x1E
92.368623999999997,,0x0A,0x14
92.369906000000000,,0x0F,0x1E
92.371187000000006,,0x75,0x0A
92.372468999999995,,0x01,0x55
92.373750999999999,,0x05,0x00
92.375033000000002,,0x00,0xFD
92.376313999999994,,0xE1,0x00
92.377595999999997,,0x00,0xA1
92.378939000000003,,0x9A,0x00
92.380281999999994,,0x00,0x97
92.381563000000000,,0xE9,0x01
92.382845000000003,,0x00,0x1B
92.384127000000007,,0xC7,0x00
92.385408999999996,,0x83,0xE8
92.386690000000002,,0x01,0x0E
92.387972000000005,,0x36,0x00
92.389253999999994,,0x49,0xF9
92.390535000000000,,0x80,0x2A
92.391817000000003,,0x18,0x00
92.393099000000007,,0x18,0x08
92.394441999999998,,0x03,0x03
92.395784000000006,,0x81,0x5A
92.397065999999995,,0x7E,0x8A
92.398347999999999,,0x86,0x6D
92.399630000000002,,0x69,0x65
92.400910999999994,,0xEA,0x5F
92.402192999999997,,0x78,0xEA
92.403475000000000,,0x0B,0x78
92.404757000000004,,0xB6,0x09
92.406037999999995,,0xE8,0xB8
92.407319999999999,,0x76,0x07
92.408663000000004,,0x93,0x67
92.410005999999996,,0x68,0x73
92.411287000000002,,0x77,0x68
92.412569000000005,,0x75,0x82
92.413850999999994,,0x2F,0x68
92.415132999999997,,0x69,0x1C
92.416414000000003,,0x98,0x67
92.417696000000007,,0x7D,0x00
92.418977999999996,,0x27,0x66
92.420259999999999,,0x60,0xB2
92.421541000000005,,0xC6,0x54
92.422822999999994,,0x1A,0x75
92.424166000000000,,0x0B,0x0F
92.425509000000005,,0x14,0x0A
92.426789999999997,,0x14,0x0F
92.428072000000000,,0x59,0x14
92.429354000000004,,0x01,0x55
92.430636000000007,,0x35,0x00
92.431916999999999,,0x80,0xF9
92.433199000000002,,0xEF,0x00
92.434481000000005,,0x00,0x9E
92.435762999999994,,0xC0,0x00
92.437044000000000,,0x01,0x94
92.438387000000006,,0x17,0x00
92.439729999999997,,0x01,0xED
92.441012000000001,,0x37,0x01
92.442293000000006,,0x6A,0x0C
92.443574999999996,,0x01,0xB0
92.444856999999999,,0x34,0x00
92.446139000000002,,0x32,0x22
92.447419999999994,,0x00,0x00
92.448701999999997,,0x1C,0x00
92.449984000000001,,0x02,0x14
92.451265000000006,,0x03,0x14
92.452546999999996,,0x60,0x2D
92.453890000000001,,0x3B,0x0A
92.455233000000007,,0x3B,0x2D
92.456513999999999,,0x93,0x34
92.457796000000002,,0xFA,0x00
92.459078000000005,,0x7C,0xAC
92.460359999999994,,0x0B,0x15
92.461641000000000,,0xB6,0x00
92.462923000000004,,0xB0,0x05
92.464205000000007,,0x68,0xD9
92.465486999999996,,0xAA,0x02
92.466768000000002,,0x2B,0xB1
92.468110999999993,,0xBE,0x03
92.469453999999999,,0x6B,0x01
92.470736000000002,,0x96,0x02
92.472016999999994,,0x6A,0xC6
92.473298999999997,,0xB3,0x03
92.474581000000001,,0x69,0x9B
92.475863000000004,,0x96,0x01
92.477143999999996,,0x31,0xC8
92.478425999999999,,0x99,0x6D
92.479708000000002,,0x23,0x8E
92.480990000000006,,0x0A,0x23
92.482270999999997,,0x05,0x28
92.483614000000003,,0x0F,0x19
92.484956999999994,,0x57,0x00
92.486238999999998,,0x01,0x0D
92.487520000000004,,0xB4,0x00
92.488802000000007,,0x00,0x22
92.490083999999996,,0xBD,0x00
92.491365999999999,,0x00,0x14
92.492647000000005,,0xF3,0x00
92.493928999999994,,0x00,0x14
92.495210999999998,,0xC7,0x00
92.496493000000001,,0x00,0x18
92.497834999999995,,0xFF,0x00
92.499178000000001,,0x00,0x16
92.500460000000004,,0x00,0x80
92.501741999999993,,0x00,0x00
92.503022999999999,,0x00,0x61
92.504305000000002,,0x00,0x21
92.505587000000006,,0x00,0x00
92.506868999999995,,0x00,0x15
92.508150000000001,,0x00,0x15
92.509432000000004,,0x00,0xBE
92.510713999999993,,0x00,0x0A
92.511995999999996,,0x00,0x27
92.513338000000005,,0x00,0x32
92.514680999999996,,0x00,0x00
92.515962999999999,,0x00,0xEA
92.517245000000003,,0x00,0x78
92.518525999999994,,0x00,0x00
92.519807999999998,,0x00,0x8C
92.521090000000001,,0x00,0x61
92.522371000000007,,0x00,0x00
92.523652999999996,,0x00,0x00
92.524934999999999,,0x00,0x00
92.526217000000003,,0x00,0x00
92.527558999999997,,0x00,0x00
92.528902000000002,,0x00,0x00
92.530184000000006,,0x00,0x00
92.531465999999995,,0x00,0x00
92.532747000000001,,0x00,0x00
92.534029000000004,,0x00,0x00
92.535310999999993,,0x00,0xA4
92.536592999999996,,0x00,0x7F
92.537874000000002,,0x00,0x23
92.539156000000006,,0x00,0x1E
92.540437999999995,,0x00,0x14
92.541719999999998,,0x00,0x00
92.543062000000006,,0x00,0x21
92.544404999999998,,0x00,0x00
92.545687000000001,,0x00,0x61
92.546969000000004,,0x00,0x00
92.548249999999996,,0x00,0x41
92.549531999999999,,0x00,0x00
92.550814000000003,,0x00,0x3B
92.552096000000006,,0x00,0x00
92.553376999999998,,0x00,0x41
92.554659000000001,,0x00,0x00
92.555941000000004,,0x00,0x43
92.557283999999996,,0x00,0xA5
92.558626000000004,,0x00,0x00
92.559907999999993,,0x00,0x1B
92.561189999999996,,0x00,0x00
92.562472000000000,,0x00,0x00
92.563753000000005,,0x00,0x00
92.565034999999995,,0x00,0x00
92.566316999999998,,0x00,0xFF
92.567599000000001,,0x00,0x21
92.568879999999993,,0x00,0x27
92.570161999999996,,0x00,0x62
92.571444000000000,,0x00,0x00
92.572787000000005,,0x00,0xAC
92.574128999999999,,0x00,0x15
92.575411000000003,,0x00,0x00
92.576693000000006,,0x00,0x03
92.577974999999995,,0x00,0x05
92.579256000000001,,0x00,0x01
92.580538000000004,,0x00,0x1B
92.581819999999993,,0x00,0x01
92.583100999999999,,0x00,0x1D
92.584383000000003,,0x00,0x01
92.585665000000006,,0x00,0x01
92.587007999999997,,0x00,0x01
92.588351000000003,,0x00,0x62
92.589631999999995,,0x00,0x00
92.590913999999998,,0x00,0xB4
92.592196000000001,,0x00,0xD1
92.593476999999993,,0x00,0x2D
92.594758999999996,,0x00,0x23
92.596041000000000,,0x00,0x1E
92.597323000000003,,0x00,0x1E
92.598603999999995,,0x00,0x00
92.599885999999998,,0x00,0x09
92.601168000000001,,0x00,0x00
92.602511000000007,,0x00,0x1B
92.603853000000001,,0x00,0x00
92.605135000000004,,0x00,0x11
92.606416999999993,,0x00,0x00
92.607698999999997,,0x00,0x0B
92.608980000000003,,0x00,0x00
92.610262000000006,,0x00,0x12
92.611543999999995,,0x00,0x00
92.612825999999998,,0x91,0x0C
92.614107000000004,,0xC4,0x83
92.615388999999993,,0x83,0x91
92.616731999999999,,0x50,0x80
92.618075000000005,,0x80,0x82
92.619355999999996,,0x52,0x8E
92.620638000000000,,0x87,0x8D
92.621920000000003,,0x50,0x50
92.623202000000006,,0x89,0x00
92.624482999999998,,0xC0,0x00
92.625765000000001,,0x82,0x00
92.627047000000005,,0x83,0x00
92.628328999999994,,0x91,0x83
92.629610000000000,,0xC0,0x91
92.630892000000003,,0x82,0x80
92.632234999999994,,0x8E,0x82
92.633578000000000,,0x8D,0x8E
92.634859000000006,,0xD0,0x8D
92.636140999999995,,0x00,0x50
92.637422999999998,,0x00,0x00
92.638705000000002,,0x00,0x00
92.639985999999993,,0x00,0x00
92.641267999999997,,0x81,0x00
92.642550000000000,,0x91,0x83
92.643832000000003,,0x80,0x91
92.645112999999995,,0x82,0x80
92.646456000000001,,0x8E,0x82
92.647799000000006,,0x8D,0x8E
92.649080999999995,,0x50,0x8D
92.650362000000001,,0x00,0x50
92.651644000000005,,0x00,0x00
92.652925999999994,,0x00,0x00
92.654207999999997,,0x00,0x00
92.655489000000003,,0x83,0x00
92.656771000000006,,0x91,0x91
92.658052999999995,,0x80,0x84
92.659334999999999,,0x82,0x83
92.660616000000005,,0x86,0x50
92.661958999999996,,0x8E,0x80
92.663302000000002,,0x50,0x92
92.664584000000005,,0x00,0x87
92.665864999999997,,0x00,0x50
92.667147000000000,,0x00,0x89
92.668429000000003,,0x00,0x80
92.669709999999995,,0x00,0x82
92.670991999999998,,0x00,0x83
92.672274000000002,,0x00,0x91
92.673556000000005,,0x00,0x80
92.674836999999997,,0x00,0x82
92.676180000000002,,0x00,0x8E
92.677522999999994,,0x00,0x8D
92.678804999999997,,0x00,0x50
92.680086000000003,,0x00,0x00
92.681368000000006,,0x00,0x00
92.682649999999995,,0x00,0x00
92.683931999999999,,0x00,0x00
92.685213000000005,,0x00,0x91
92.686494999999994,,0x00,0x84
92.687776999999997,,0x00,0x83
92.689059000000000,,0x00,0x50
92.690340000000006,,0x00,0x80
92.691682999999998,,0x00,0x92
92.693026000000003,,0x00,0x87
92.694308000000007,,0x00,0x50
92.695588999999998,,0x00,0x89
92.696871000000002,,0x00,0x80
92.698153000000005,,0x8F,0x82
92.699434999999994,,0x88,0xE3
92.700716000000000,,0xC3,0xA7
92.701998000000003,,0x82,0xA0
92.703280000000007,,0x84,0xA2
92.704561999999996,,0x98,0xAA
92.705904000000004,,0x70,0xE3
92.707246999999995,,0x58,0xA4
92.708528999999999,,0x50,0xAC
92.709811000000002,,0x50,0xE3
92.711091999999994,,0x70,0x80
92.712373999999997,,0x8E,0x50
92.713656000000000,,0x80,0xAB
92.714938000000004,,0x86,0xAB
92.716218999999995,,0xCC,0xE3
92.717500999999999,,0x80,0x8F
92.718783000000002,,0x91,0x96
92.720065000000005,,0x50,0x8D
92.721406999999999,,0x60,0xAA
92.722750000000005,,0x58,0xA4
92.724031999999994,,0x50,0xAC
92.725313999999997,,0x50,0xAE
92.726595000000003,,0xCC,0x50
92.727877000000007,,0x86,0xAD
92.729158999999996,,0x96,0xE7
92.730440000000002,,0x13,0xE7
92.731722000000005,,0x96,0xE7
92.733003999999994,,0x8F,0x9B
92.734285999999997,,0x50,0x50
92.735628000000005,,0x50,0x09
92.736970999999997,,0x60,0x0B
92.738253000000000,,0x50,0x09
92.739535000000004,,0x50,0x02
92.740815999999995,,0x02,0x00
92.742097999999999,,0x9A,0x82
92.743380000000002,,0x83,0x87
92.744662000000005,,0x86,0x80
92.745942999999997,,0x5A,0x91
92.747225000000000,,0x86,0x8C
92.748507000000004,,0x8F,0x80
92.749789000000007,,0x8D,0x8D
92.751131000000001,,0xCD,0x83
92.752474000000007,,0x80,0x84
92.753755999999996,,0x50,0x91
92.755037999999999,,0x00,0x50
92.756319000000005,,0x00,0x86
92.757600999999994,,0x00,0x8E
92.758882999999997,,0x00,0x8B
92.760165000000001,,0x00,0x83
92.761446000000007,,0x00,0x94
92.762727999999996,,0x00,0x82
92.764009999999999,,0x00,0x8A
92.765353000000005,,0x00,0x50
92.766694999999999,,0x00,0x50
92.767977000000002,,0x00,0x50
92.769259000000005,,0x00,0x50
92.770540999999994,,0x00,0x91
92.771822000000000,,0x00,0x80
92.773104000000004,,0x00,0x93
92.774386000000007,,0x00,0x93
92.775667999999996,,0x00,0x80
92.776949000000002,,0x00,0x93
92.778231000000005,,0x00,0x80
92.779512999999994,,0x00,0x50
92.780856000000000,,0x00,0x50
92.782197999999994,,0x00,0x50
92.783479999999997,,0x0C,0x50
92.784762000000001,,0x90,0xFF
92.786044000000004,,0x04,0x9F
92.787385999999998,,0xFD,0x07
92.788668000000001,,0xFF,0xFD
92.789950000000005,,0xFD,0xFD
92.791231999999994,,0xFD,0xFD
92.792513000000000,,0xFD,0xFD
92.793795000000003,,0xFF,0x00
92.795077000000006,,0x00,0x00
92.796419999999998,,0x00,0x00
92.797762000000006,,0x00,0x00
92.799043999999995,,0x00,0x00
92.800325999999998,,0x00,0x00
92.801608000000002,,0x00,0x00
92.802888999999993,,0x00,0xFF
92.804170999999997,,0xB0,0xFF
92.805453000000000,,0xFF,0x00
92.806734000000006,,0xFF,0x00
92.808015999999995,,0x00,0x00
92.809297999999998,,0x00,0x00
92.810641000000004,,0x00,0x00
92.811983999999995,,0x00,0x00
92.813265000000001,,0x00,0x00
92.814547000000005,,0x00,0x00
92.815828999999994,,0x00,0x00
92.817110000000000,,0x00,0x00
92.818392000000003,,0x00,0x00
92.819674000000006,,0x00,0x00
92.820955999999995,,0x00,0x00
92.822237000000001,,0x00,0x00
92.823519000000005,,0x00,0x00
92.824800999999994,,0x00,0x00
92.826143999999999,,0x00,0x00
92.827485999999993,,0x00,0x00
92.828767999999997,,0x00,0x00
92.830050000000000,,0x00,0x00
92.831332000000003,,0x00,0x00
92.832612999999995,,0x00,0x00
92.833894999999998,,0x00,0x00
92.835177000000002,,0x00,0x00
92.836459000000005,,0x00,0x00
92.837739999999997,,0x00,0x00
92.839022000000000,,0x00,0x00
92.840365000000006,,0x00,0x00
92.841707999999997,,0x00,0x00
92.842989000000003,,0x00,0x00
92.844271000000006,,0x00,0x00
92.845552999999995,,0x00,0x00
92.846834999999999,,0x00,0x00
92.848116000000005,,0x00,0x00
92.849397999999994,,0x00,0x00
92.850679999999997,,0x00,0x00
92.851962000000000,,0x00,0x00
92.853243000000006,,0x00,0x00
92.854524999999995,,0x00,0x00
92.855868000000001,,0x00,0x00
92.857211000000007,,0x00,0x00
92.858491999999998,,0x00,0x00
92.859774000000002,,0x00,0x00
92.861056000000005,,0x00,0x00
92.862337999999994,,0x00,0x00
92.863619000000000,,0x00,0x00
92.864901000000003,,0x00,0x00
92.866183000000007,,0x00,0x00
92.867464999999996,,0x00,0x00
92.868746000000002,,0x00,0x00
92.870088999999993,,0x00,0x00
92.871431999999999,,0x00,0x00
92.872714000000002,,0x00,0x00
92.873994999999994,,0x00,0x00
92.875276999999997,,0x00,0x00
92.876559000000000,,0x00,0x00
92.877840000000006,,0x00,0x00
92.879121999999995,,0x00,0x00
92.880403999999999,,0x00,0x00
92.881686000000002,,0x00,0x00
92.882966999999994,,0x00,0x00
92.884248999999997,,0x00,0x00
92.885592000000003,,0x00,0x00
92.886934999999994,,0x00,0x00
92.888216000000000,,0x00,0x00
92.889498000000003,,0x00,0x00
92.890780000000007,,0x00,0x00
92.892061999999996,,0x00,0x00
92.893343000000002,,0x00,0x00
92.894625000000005,,0x00,0x00
92.895906999999994,,0x00,0x00
92.897188999999997,,0x00,0x00
92.898470000000003,,0x00,0x00
92.899812999999995,,0x00,0x00
92.901156000000000,,0x00,0x00
92.902438000000004,,0x00,0x00
92.903718999999995,,0x00,0x00
92.905000999999999,,0x00,0x00
92.906283000000002,,0x00,0x00
92.907565000000005,,0x00,0x00
92.908845999999997,,0x00,0x00
92.910128000000000,,0x00,0x00
92.911410000000004,,0x00,0x00
92.912692000000007,,0x00,0x00
92.913972999999999,,0x00,0x00
92.915316000000004,,0x00,0x00
92.916658999999996,,0x00,0x00
92.917940999999999,,0x00,0x00
92.919222000000005,,0x00,0x00
92.920503999999994,,0x00,0x00
92.921785999999997,,0x00,0x00
92.923068000000001,,0x00,0x00
92.924349000000007,,0x00,0x00
92.925630999999996,,0x00,0x00
92.926912999999999,,0x00,0x00
92.928195000000002,,0x00,0x00
92.929536999999996,,0x00,0x00
92.930880000000002,,0x00,0x00
92.932162000000005,,0x00,0x00
92.933443999999994,,0x00,0x00
92.934725000000000,,0x00,0x00
92.936007000000004,,0x00,0x00
92.937289000000007,,0x00,0x00
92.938570999999996,,0x00,0x00
92.939852000000002,,0x00,0x00
92.941134000000005,,0x00,0x00
92.942415999999994,,0x00,0x00
92.943697000000000,,0x00,0x00
92.945040000000006,,0x00,0x00
92.946382999999997,,0x00,0x00
92.947665000000001,,0x00,0x00
92.948947000000004,,0x00,0x00
92.950227999999996,,0x00,0x00
92.951509999999999,,0x00,0x00
92.952792000000002,,0x00,0x00
92.954072999999994,,0x00,0x00
92.955354999999997,,0x00,0x00
92.956637000000001,,0x00,0x00
92.957919000000004,,0x00,0x00
92.959260999999998,,0x00,0x00
92.960604000000004,,0x00,0x00
92.961886000000007,,0x00,0x00
92.963167999999996,,0x00,0x00
92.964449000000002,,0x00,0x00
92.965731000000005,,0x00,0x00
92.967012999999994,,0x00,0x00
92.968294999999998,,0x00,0x00
92.969576000000004,,0x00,0x00
92.970858000000007,,0x00,0x00
92.972139999999996,,0x00,0x00
92.973421999999999,,0x00,0x00
92.974763999999993,,0x00,0x00
92.976106999999999,,0x00,0x00
92.977389000000002,,0x00,0x00
92.978671000000006,,0x00,0x00
92.979951999999997,,0x00,0x00
92.981234000000001,,0x00,0x00
92.982516000000004,,0x00,0x00
92.983797999999993,,0x00,0x00
92.985078999999999,,0x00,0x00
92.986361000000002,,0x00,0x00
92.987643000000006,,0x00,0x00
92.988985999999997,,0x00,0x00
92.990328000000005,,0x00,0x00
92.991609999999994,,0x00,0x00
92.992891999999998,,0x00,0x00
92.994174000000001,,0x00,0x00
92.995455000000007,,0x00,0x00
92.996736999999996,,0x00,0x00
92.998018999999999,,0x00,0x00
92.999301000000003,,0x00,0x00
93.000581999999994,,0x00,0x00
93.001863999999998,,0x00,0x00
93.003146000000001,,0x00,0x00
93.004489000000007,,0x00,0x00
93.005831000000001,,0x00,0x00
93.007113000000004,,0x00,0x00
93.008394999999993,,0x00,0x00
93.009676999999996,,0x00,0x00
93.010958000000002,,0x00,0x00
93.012240000000006,,0x00,0x00
93.013521999999995,,0x00,0x00
93.014803000000001,,0x00,0x00
93.016085000000004,,0x00,0x00
93.017366999999993,,0x00,0x00
93.018709999999999,,0x00,0x00
93.020053000000004,,0x00,0x00
93.021333999999996,,0x00,0x00
93.022615999999999,,0x00,0x00
93.023898000000003,,0x00,0x00
93.025178999999994,,0x00,0x00
93.026460999999998,,0x00,0x00
93.027743000000001,,0x00,0x00
93.029025000000004,,0x00,0x00
93.030305999999996,,0x00,0x00
93.031587999999999,,0x00,0x00
93.032870000000003,,0x00,0x00
93.034212999999994,,0x00,0x00
93.035555000000002,,0x00,0x00
93.036837000000006,,0x00,0x00
93.038118999999995,,0x00,0x00
93.039400999999998,,0x00,0x00
93.040682000000004,,0x00,0x00
93.041963999999993,,0x00,0x00
93.043245999999996,,0x00,0x00
93.044528000000000,,0x00,0x00
93.045809000000006,,0x00,0x00
104.802959000000001,,0x00,0x00
104.819377000000003,,0x00,0x6F
104.836100999999999,,0xFE,0x6F
104.852885000000001,,0x7E,0x6F
104.869608999999997,,0xFE,0x6F
104.886332999999993,,0xFE,0x6F
104.905558999999997,,0xFE,0x6F
104.919841000000005,,0xFE,0x6F
104.936565000000002,,0xFE,0x6F
104.953349000000003,,0xFE,0x6F
104.970072999999999,,0xFE,0x6F
104.987162999999995,,0xFF,0x6F
105.003519999999995,,0xFE,0x6F
105.020304999999993,,0xFF,0x6F
105.037029000000004,,0xFE,0x6F
105.053752000000003,,0xFE,0x6F
105.070537000000002,,0xFF,0x6F
105.088358999999997,,0xFE,0x6F
105.104044999999999,,0xFE,0x6F
105.120952000000003,,0xFF,0x6F
105.137553999999994,,0xFE,0x6F
105.154276999999993,,0xFE,0x6F
105.171001000000004,,0xFF,0x6F
105.188213000000005,,0xFE,0x6F
105.204570000000004,,0xFE,0x6F
105.221232999999998,,0xFE,0x6F
105.238016999999999,,0x7E,0x6F
105.254801999999998,,0xFE,0x6F
105.272563000000005,,0xFE,0x6F
105.288309999999996,,0x7E,0x6F
105.304973000000004,,0xFE,0x6F
105.321758000000003,,0xFE,0x6F
105.338481000000002,,0xFE,0x6F
105.355204999999998,,0xFE,0x6F
105.372355999999996,,0xFF,0x6F
105.388773999999998,,0xFE,0x6F
105.405437000000006,,0xFE,0x6F
105.422161000000003,,0xFE,0x6F
105.438884000000002,,0xFE,0x6F
105.455791000000005,,0xFE,0x6F
105.473308000000003,,0xFE,0x6F
105.489115999999996,,0xFE,0x6F
105.505900999999994,,0xFF,0x6F
105.522685999999993,,0xFE,0x6F
105.539409000000006,,0xFE,0x6F
105.556438000000000,,0xFE,0x6F
105.572856999999999,,0xFE,0x6F
105.589641000000000,,0xFE,0x6F
105.606303999999994,,0xFF,0x6F
105.623149999999995,,0xFE,0x6F
105.639812000000006,,0xFE,0x6F
105.658671999999996,,0xFE,0x6F
105.673259000000002,,0x7E,0x6F
105.690044000000000,,0xFE,0x6F
105.706767999999997,,0xFE,0x6F
105.723551999999998,,0x7E,0x6F
105.740581000000006,,0xFE,0x6F
105.757000000000005,,0xFE,0x6F
105.773723000000004,,0xFE,0x6F
105.790569000000005,,0xFE,0x6F
105.807231999999999,,0xFE,0x6F
105.823954999999998,,0xFE,0x6F
105.842510000000004,,0xFE,0x6F
105.857524999999995,,0xFE,0x6F
105.874187000000006,,0xFE,0x6F
105.890911000000003,,0xFF,0x6F
105.907696000000001,,0xFE,0x6F
105.924480000000003,,0xFE,0x6F
105.941508999999996,,0xFE,0x6F
105.957927999999995,,0xFE,0x6F
105.974650999999994,,0xFE,0x6F
105.991435999999993,,0xFF,0x6F
106.008160000000004,,0xFE,0x6F
106.026531000000006,,0xFE,0x6F
106.041606999999999,,0xFF,0x6F
106.058453000000000,,0xFE,0x6F
106.075114999999997,,0xFE,0x6F
106.091838999999993,,0xFE,0x6F
106.108562000000006,,0x7E,0x6F
106.125774000000007,,0xFE,0x6F
106.142071000000001,,0xFE,0x6F
106.158794000000000,,0xFE,0x6F
106.175578999999999,,0xFE,0x6F
106.192363999999998,,0xFE,0x6F
106.209025999999994,,0xFE,0x6F
106.228497000000004,,0xFE,0x6F
106.242535000000004,,0xFE,0x6F
106.259258000000003,,0xFE,0x6F
106.276043000000001,,0xFE,0x6F
106.292766999999998,,0xFE,0x6F
106.309856999999994,,0xFE,0x6F
106.326213999999993,,0xFF,0x6F
106.342999000000006,,0xFE,0x6F
106.359722000000005,,0xFE,0x6F
106.376446000000001,,0xFF,0x6F
106.393169999999998,,0xFE,0x6F
106.410870000000003,,0xFE,0x6F
106.426677999999995,,0xFF,0x6F
106.443523999999996,,0xFE,0x6F
106.460185999999993,,0xFE,0x6F
106.476971000000006,,0xFF,0x6F
106.494122000000004,,0xFE,0x6F
106.510479000000004,,0xFE,0x6F
106.527203000000000,,0xFF,0x6F
106.543925999999999,,0x7E,0x6F
106.560649999999995,,0xFE,0x6F
106.577556999999999,,0xFF,0x6F
106.595196000000001,,0xFE,0x6F
106.610882000000004,,0xFE,0x6F
106.627667000000002,,0xFE,0x6F
106.644451000000004,,0x7E,0x6F
106.661175000000000,,0xFE,0x6F
106.677898999999996,,0xFE,0x6F
106.694989000000007,,0xFE,0x6F
106.711406999999994,,0xFE,0x6F
106.728070000000002,,0xFE,0x6F
106.744915000000006,,0xFE,0x6F
106.761578000000000,,0xFF,0x6F
106.780804000000003,,0xFE,0x6F
106.795024999999995,,0xFE,0x6F
106.811749000000006,,0xFF,0x6F
106.828534000000005,,0xFE,0x6F
106.845257000000004,,0xFE,0x6F
106.861981000000000,,0xFF,0x6F
106.879070999999996,,0xFE,0x6F
106.895488999999998,,0xFE,0x6F
106.912212999999994,,0xFE,0x6F
106.928935999999993,,0x7E,0x6F
106.945721000000006,,0xFE,0x6F
106.962506000000005,,0xFE,0x6F
106.981731999999994,,0xFF,0x6F
106.995953000000000,,0xFE,0x6F
107.012676999999996,,0xFE,0x6F
107.029399999999995,,0xFE,0x6F
107.046184999999994,,0xFE,0x6F
107.063275000000004,,0xFF,0x6F
107.079632000000004,,0xFE,0x6F
107.096417000000002,,0xFE,0x6F
107.113140999999999,,0xFE,0x6F
107.129863999999998,,0xFE,0x6F
107.146648999999996,,0xFF,0x6F
107.165752999999995,,0xFE,0x6F
107.180096000000006,,0xFE,0x6F
107.196820000000002,,0xFF,0x6F
107.213605000000001,,0xFE,0x6F
107.230328000000000,,0xFE,0x6F
107.247417999999996,,0xFE,0x6F
107.263836999999995,,0xFE,0x6F
107.280559999999994,,0xFE,0x6F
107.297284000000005,,0xFF,0x6F
107.314069000000003,,0xFE,0x6F
107.330792000000002,,0xFE,0x6F
107.350139999999996,,0xFE,0x6F
107.364300000000000,,0x7E,0x6F
107.381023999999996,,0xFE,0x6F
107.397748000000007,,0xFE,0x6F
107.414471000000006,,0xFE,0x6F
107.431256000000005,,0xFE,0x6F
107.448346000000001,,0xFF,0x6F
107.464703000000000,,0xFE,0x6F
107.481487999999999,,0xFE,0x6F
107.498211999999995,,0xFE,0x6F
107.514934999999994,,0xFE,0x6F
107.534222000000000,,0x7E,0x6F
107.548444000000003,,0xFE,0x6F
107.565167000000002,,0xFE,0x6F
107.581952000000001,,0xFF,0x6F
107.598675999999998,,0xFE,0x6F
107.615398999999996,,0xFE,0x6F
107.632489000000007,,0xFE,0x6F
107.648908000000006,,0xFE,0x6F
107.665631000000005,,0xFE,0x6F
107.682416000000003,,0xFF,0x6F
107.699140000000000,,0xFE,0x6F
107.715862999999999,,0xFE,0x6F
107.735150000000004,,0xFE,0x6F
107.749371999999994,,0xFE,0x6F
107.766095000000007,,0xFE,0x6F
107.782819000000003,,0xFE,0x6F
107.799603000000005,,0x7E,0x6F
107.816693000000001,,0xFE,0x6F
107.833050999999998,,0xFE,0x6F
107.849834999999999,,0x7E,0x6F
107.866558999999995,,0xFE,0x6F
107.883283000000006,,0xFE,0x6F
107.900067000000007,,0xFE,0x6F
107.918560999999997,,0xFE,0x6F
107.933576000000002,,0xFE,0x6F
107.950360000000003,,0xFE,0x6F
107.967022999999998,,0xFE,0x6F
107.983807999999996,,0xFE,0x6F
108.001569000000003,,0xFF,0x6F
108.017315999999994,,0xFE,0x6F
108.033979000000002,,0xFE,0x6F
108.050763000000003,,0xFE,0x6F
108.067487000000000,,0xFF,0x6F
108.084333000000001,,0xFE,0x6F
108.102765000000005,,0xFE,0x6F
108.117718999999994,,0xFF,0x6F
108.134443000000005,,0xFE,0x6F
108.151287999999994,,0xFE,0x6F
108.167951000000002,,0xFF,0x6F
108.184674999999999,,0xFE,0x6F
108.202496999999994,,0xFE,0x6F
108.218243999999999,,0xFF,0x6F
108.234905999999995,,0x7E,0x6F
108.251690999999994,,0xFE,0x6F
108.268415000000005,,0xFE,0x6F
108.287030999999999,,0xFE,0x6F
108.301862000000000,,0xFE,0x6F
108.318646999999999,,0xFE,0x6F
108.335369999999998,,0xFE,0x6F
108.352215999999999,,0xFE,0x6F
108.368879000000007,,0xFE,0x6F
108.385969000000003,,0xFE,0x6F
108.402326000000002,,0xFE,0x6F
108.419172000000003,,0xFE,0x6F
108.435834000000000,,0xFE,0x6F
108.452557999999996,,0xFF,0x6F
108.469342999999995,,0xFE,0x6F
108.487958000000006,,0xFE,0x6F
108.502790000000005,,0xFF,0x6F
108.519514000000001,,0xFE,0x6F
108.536298000000002,,0xFE,0x6F
108.553083000000001,,0xFF,0x6F
108.570111999999995,,0xFE,0x6F
108.586529999999996,,0xFE,0x6F
108.603254000000007,,0xFF,0x6F
108.620039000000006,,0xFE,0x6F
108.636762000000004,,0xFE,0x6F
108.653486000000001,,0xFE,0x6F
108.671125000000004,,0xFF,0x6F
108.687055000000001,,0xFE,0x6F
108.703717999999995,,0xFE,0x6F
108.720501999999996,,0x7E,0x6F
108.737226000000007,,0xFE,0x6F
108.754437999999993,,0xFE,0x6F
108.770734000000004,,0xFE,0x6F
108.787458000000001,,0xFE,0x6F
108.804181999999997,,0xFE,0x6F
108.821027000000001,,0xFE,0x6F
108.837750999999997,,0xFE,0x6F
108.855328999999998,,0xFE,0x6F
108.871137000000004,,0xFE,0x6F
108.887983000000006,,0xFE,0x6F
108.904646000000000,,0xFE,0x6F
108.921430000000001,,0xFE,0x6F
108.938153999999997,,0xFF,0x6F
108.955304999999996,,0xFF,0x6F
108.971601000000007,,0xFE,0x6F
108.988386000000006,,0xFF,0x6F
109.005171000000004,,0xFE,0x6F
109.021894000000003,,0xFE,0x6F
109.039533000000006,,0xFE,0x6F
109.055341999999996,,0xFE,0x6F
109.072064999999995,,0xFE,0x6F
109.088971999999998,,0xFF,0x6F
109.105573000000007,,0x7E,0x6F
109.122297000000003,,0xFE,0x6F
109.139386999999999,,0xFF,0x6F
109.155866000000003,,0x7E,0x6F
109.172590000000000,,0xFE,0x6F
109.189252999999994,,0xFE,0x6F
109.206036999999995,,0xFE,0x6F
109.222821999999994,,0xFE,0x6F
109.242170000000002,,0xFE,0x6F
109.256208000000001,,0xFE,0x6F
109.272931999999997,,0xFF,0x6F
109.289716999999996,,0xFE,0x6F
109.306439999999995,,0xFE,0x6F
109.323530000000005,,0xFE,0x6F
109.339888000000002,,0xFE,0x6F
109.356672000000003,,0xFE,0x6F
109.373396000000000,,0xFF,0x6F
109.390119999999996,,0xFE,0x6F
109.406903999999997,,0xFE,0x6F
109.424543000000000,,0xFE,0x6F
109.440413000000007,,0xFE,0x6F
109.457136000000006,,0xFE,0x6F
109.474042999999995,,0xFF,0x6F
109.490645000000001,,0xFE,0x6F
109.507733999999999,,0xFE,0x6F
109.524152999999998,,0xFF,0x6F
109.540937999999997,,0xFE,0x6F
109.557660999999996,,0xFE,0x6F
109.574385000000007,,0xFE,0x6F
109.591108000000006,,0x7E,0x6F
109.610579000000001,,0xFE,0x6F
109.624555999999998,,0xFE,0x6F
109.641278999999997,,0xFE,0x6F
109.658002999999994,,0xFF,0x6F
109.674788000000007,,0xFE,0x6F
109.691511000000006,,0xFE,0x6F
109.708601000000002,,0xFE,0x6F
109.725020000000001,,0xFE,0x6F
109.741743000000000,,0xFE,0x6F
109.758466999999996,,0xFF,0x6F
109.775251999999995,,0xFE,0x6F
109.793135000000007,,0xFF,0x6F
109.808760000000007,,0xFF,0x6F
109.825484000000003,,0xFE,0x6F
109.842268000000004,,0xFE,0x6F
109.859114000000005,,0xFF,0x6F
109.875715999999997,,0xFE,0x6F
109.892804999999996,,0xFE,0x6F
109.909223999999995,,0xFF,0x6F
109.926008999999993,,0xFE,0x6F
109.942792999999995,,0xFE,0x6F
109.959456000000003,,0xFE,0x6F
109.976179000000002,,0x7E,0x6F
109.995527999999993,,0xFE,0x6F
110.009626999999995,,0xFE,0x6F
110.026349999999994,,0xFE,0x6F
110.043135000000007,,0xFE,0x6F
110.059859000000003,,0xFE,0x6F
110.076948999999999,,0xFE,0x6F
110.093367000000001,,0xFE,0x6F
110.110090999999997,,0xFE,0x6F
110.126813999999996,,0xFE,0x6F
110.143538000000007,,0xFF,0x6F
110.160323000000005,,0xFE,0x6F
110.178083999999998,,0xFF,0x6F
110.193831000000003,,0xFF,0x6F
110.210616000000002,,0xFE,0x6F
110.227339000000001,,0xFE,0x6F
110.244185000000002,,0xFF,0x6F
110.261152999999993,,0xFE,0x6F
110.277570999999995,,0xFE,0x6F
110.294295000000005,,0xFF,0x6F
110.311080000000004,,0xFE,0x6F
110.327864000000005,,0xFE,0x6F
110.344526999999999,,0xFF,0x6F
110.363874999999993,,0xFF,0x6F
110.377973999999995,,0xFE,0x6F
110.394698000000005,,0xFE,0x6F
110.411421000000004,,0xFE,0x6F
110.428206000000003,,0xFE,0x6F
110.444929999999999,,0xFE,0x6F
110.462019999999995,,0xFE,0x6F
110.478437999999997,,0xFE,0x6F
110.495161999999993,,0xFE,0x6F
110.511885000000007,,0xFE,0x6F
110.528670000000005,,0xFE,0x6F
110.546492000000001,,0xFE,0x6F
110.562239000000005,,0xFE,0x6F
110.578901999999999,,0xFF,0x6F
110.595686999999998,,0xFE,0x6F
110.612409999999997,,0xFE,0x6F
110.629255999999998,,0xFF,0x6F
110.646224000000004,,0xFE,0x6F
110.662642000000005,,0xFE,0x6F
110.679366000000002,,0xFF,0x6F
110.696212000000003,,0xFE,0x6F
110.712935000000002,,0xFE,0x6F
110.729597999999996,,0xFF,0x6F
110.749251000000001,,0xFE,0x6F
110.763045000000005,,0xFE,0x6F
110.779769000000002,,0xFE,0x6F
110.796553000000003,,0x7E,0x6F
110.813276999999999,,0xFE,0x6F
110.830366999999995,,0xFF,0x6F
110.846784999999997,,0xFE,0x6F
110.863508999999993,,0xFE,0x6F
110.880233000000004,,0xFE,0x6F
110.897017000000005,,0xFE,0x6F
110.913741000000002,,0xFE,0x6F
110.933027999999993,,0xFE,0x6F
110.947187999999997,,0xFE,0x6F
110.963972999999996,,0xFF,0x6F
110.980697000000006,,0xFE,0x6F
110.997420000000005,,0xFE,0x6F
111.014571000000004,,0xFE,0x6F
111.030929000000000,,0xFE,0x6F
111.047651999999999,,0xFE,0x6F
111.064436999999998,,0xFF,0x6F
111.081160999999994,,0xFE,0x6F
111.097883999999993,,0xFE,0x6F
111.115706000000003,,0x7E,0x6F
111.131454000000005,,0xFE,0x6F
111.148177000000004,,0xFE,0x6F
111.164901000000000,,0xFF,0x6F
111.181685999999999,,0xFE,0x6F
111.198531000000003,,0xFE,0x6F
111.215498999999994,,0xFE,0x6F
111.231855999999993,,0x7E,0x6F
111.248641000000006,,0xFE,0x6F
111.265426000000005,,0xFE,0x6F
111.282210000000006,,0x7E,0x6F
111.299910999999994,,0xFE,0x6F
111.315596999999997,,0xFE,0x6F
111.332380999999998,,0xFE,0x6F
111.349104999999994,,0xFE,0x6F
111.365889999999993,,0xFE,0x6F
111.382552000000004,,0xFE,0x6F
111.399764000000005,,0xFE,0x6F
111.416060999999999,,0xFE,0x6F
111.432783999999998,,0xFE,0x6F
111.449629999999999,,0xFE,0x6F
111.466353999999995,,0xFE,0x6F
111.483016000000006,,0xFE,0x6F
111.500715999999997,,0x7E,0x6F
111.516525000000001,,0xFE,0x6F
111.533370000000005,,0xFE,0x6F
111.549971999999997,,0xFF,0x6F
111.566756999999996,,0xFE,0x6F
111.583845999999994,,0xFE,0x6F
111.600325999999995,,0xFF,0x6F
111.617050000000006,,0xFE,0x6F
111.633712000000003,,0xFE,0x6F
111.650435999999999,,0xFE,0x6F
111.667281000000003,,0x7E,0x6F
111.685835999999995,,0xFE,0x6F
111.700667999999993,,0xFE,0x6F
111.717391000000006,,0xFE,0x6F
111.734236999999993,,0xFE,0x6F
111.750900000000001,,0xFE,0x6F
111.767989999999998,,0xFE,0x6F
111.784346999999997,,0xFF,0x6F
111.801192999999998,,0xFE,0x6F
111.817854999999994,,0xFE,0x6F
111.834579000000005,,0xFF,0x6F
111.851364000000004,,0xFE,0x6F
111.869917999999998,,0xFE,0x6F
111.884810999999999,,0xFF,0x6F
111.901595999999998,,0xFE,0x6F
111.918318999999997,,0xFE,0x6F
111.935103999999995,,0xFF,0x6F
111.951828000000006,,0xFE,0x6F
111.968917000000005,,0xFE,0x6F
111.985275000000001,,0xFF,0x6F
112.002121000000002,,0xFE,0x6F
112.018782999999999,,0xFE,0x6F
112.035506999999996,,0xFE,0x6F
112.053939000000000,,0xFE,0x6F
112.069075999999995,,0xFE,0x6F
112.085739000000004,,0xFE,0x6F
112.102523000000005,,0x7E,0x6F
112.119247000000001,,0xFE,0x6F
112.136032000000000,,0xFE,0x6F
112.153060999999994,,0xFE,0x6F
112.169478999999995,,0xFE,0x6F
112.186203000000006,,0xFE,0x6F
112.202986999999993,,0xFE,0x6F
112.219711000000004,,0xFE,0x6F
112.236435000000000,,0x6F,0x6F
112.256027000000003,,0xFF,0x6F
112.286606000000006,,0x6F,0x6F
112.303389999999993,,0x7F,0x6F
112.320114000000004,,0x6F,0x6F
112.337204000000000,,0x6F,0x6F
112.353560999999999,,0x7F,0x6F
112.370345999999998,,0x6F,0x6F
112.387068999999997,,0xEF,0x6F
112.403792999999993,,0x77,0x6F
112.420578000000006,,0x6F,0x6F
112.438216999999995,,0x00,0x6F
112.454086000000004,,0x00,0x6F
112.470810000000000,,0x00,0x00
112.487594000000001,,0x00,0x00
112.504256999999996,,0x00,0x00
112.521468999999996,,0x00,0x00
112.537764999999993,,0x00,0x00
112.554489000000004,,0x00,0x00
112.571335000000005,,0x00,0x00
112.588058000000004,,0x00,0x00
112.604720999999998,,0xFF,0x00
128.031121000000013,,0xFE,0x00
128.034721999999988,,0x6F,0x6F
128.051385000000010,,0xFE,0x6F
128.084832000000006,,0x6F,0x6F
128.101617000000005,,0x6F,0x6F
128.120721000000003,,0x6F,0x6F
128.135064000000000,,0x6F,0x6F
128.151848999999999,,0x6F,0x6F
128.168572000000012,,0x7F,0x6F
128.185295999999994,,0x6F,0x6F
128.202080999999993,,0x6F,0x6F
128.218804000000006,,0x7F,0x6F
128.235527999999988,,0x6F,0x6F
128.252251999999999,,0x6F,0x6F
128.268975000000012,,0x00,0x00
128.285760000000010,,0x00,0x00
128.302482999999995,,0x00,0x00
128.319207000000006,,0x00,0x00
128.335930999999988,,0x00,0x00
128.355096000000003,,0x00,0x00
128.369439000000000,,0x00,0x00
128.386163000000010,,0x00,0x00
128.402947000000012,,0x00,0x00
128.453117999999989,,0x00,0x00
128.469902999999988,,0xFF,0x00
128.520135000000010,,0xFE,0x00
128.521417000000014,,0xFD,0xFD
128.522759000000008,,0xFD,0xFD
128.524101999999999,,0xFD,0xFD
128.525384000000003,,0xFF,0xFD
128.526666000000006,,0xFD,0xFD
128.527947000000012,,0xFD,0xFD
128.529228999999987,,0xFD,0xFD
128.530510999999990,,0xFE,0xFD
128.531792999999993,,0xFD,0x1F
128.533073999999999,,0xB8,0xEC
128.534356000000002,,0x9B,0xBB
128.535638000000006,,0x70,0x8B
128.536980999999997,,0x4F,0x5D
128.538322999999991,,0xB0,0x31
128.539604999999995,,0x1B,0x07
128.540886999999998,,0xF7,0xDF
128.542169000000001,,0xDD,0xB9
128.543510999999995,,0xC5,0x95
128.544792999999999,,0xB7,0xFD
128.546075000000002,,0xFE,0xFD
128.547357000000005,,0xFD,0xFD
128.548638000000011,,0xFD,0xFD
128.549919999999986,,0xFD,0xFD
128.551201999999989,,0xFD,0xFD
128.552483999999993,,0xFD,0xFD
128.553764999999999,,0xFD,0xFD
128.555047000000002,,0x99,0xFD
128.556329000000005,,0x84,0x83
128.557611000000009,,0x83,0x91
128.558953000000002,,0xF0,0x80
128.560295999999994,,0x80,0x82
128.561577999999997,,0x93,0x8E
128.562860000000001,,0x87,0x8D
128.564141000000006,,0xB0,0x50
128.565423000000010,,0x8D,0x00
128.566705000000013,,0x80,0x00
128.567986999999988,,0x82,0x00
128.569267999999994,,0x04,0x00
128.570549999999997,,0x26,0x06
128.571832000000001,,0x33,0x31
128.573114000000004,,0x83,0x68
128.574455999999998,,0x6A,0x0E
128.575798999999989,,0xFF,0xB0
128.577080999999993,,0x00,0x80
128.578362999999996,,0x00,0xA5
128.579644000000002,,0x14,0xFF
128.580926000000005,,0x00,0x31
128.582208000000008,,0x1E,0x01
128.583488999999986,,0x00,0x13
128.584770999999989,,0x00,0x2E
128.586052999999993,,0x00,0x00
128.587334999999996,,0x02,0x05
128.588676999999990,,0x7F,0x04
128.590020000000010,,0x00,0xFF
128.591302000000013,,0x00,0x59
128.592583999999988,,0x00,0x58
128.593865999999991,,0x00,0x9D
128.595146999999997,,0xBC,0x99
128.596429000000001,,0x16,0xEA
128.597711000000004,,0x00,0x78
128.598992000000010,,0x03,0x09
128.600274000000013,,0x04,0xB8
128.601555999999988,,0x00,0x07
128.602837999999991,,0xE6,0x67
128.604180000000014,,0x00,0x8A
128.605523000000005,,0xBA,0x68
128.606805000000008,,0x00,0xBD
128.608087000000012,,0xFA,0x67
128.609367999999989,,0x00,0xB4
128.610649999999993,,0xC4,0x67
128.611931999999996,,0x00,0xAF
128.613213999999999,,0x6E,0x67
128.614495000000005,,0x20,0x63
128.615777000000008,,0xDE,0x01
128.617059000000012,,0x23,0x9C
128.618402000000003,,0x00,0x0A
128.619743999999997,,0x00,0x0F
128.621026000000001,,0x00,0x0A
128.622308000000004,,0x0B,0x05
128.623590000000007,,0x00,0x55
128.624871000000013,,0x1E,0x01
128.626152999999988,,0x00,0x13
128.627434999999991,,0x10,0x00
128.628716999999995,,0x00,0xE2
128.629998000000001,,0x0E,0x01
128.631280000000004,,0x00,0x05
128.632562000000007,,0x14,0x00
128.633904999999999,,0x00,0x82
128.635246999999993,,0x0F,0x00
128.636528999999996,,0x3B,0x98
128.637810999999999,,0x01,0x68
128.639093000000003,,0x05,0x00
128.640374000000008,,0x06,0xFD
128.641656000000012,,0x00,0x19
128.642937999999987,,0x14,0x00
128.644219999999990,,0x14,0x17
128.645500999999996,,0x3D,0x17
128.646782999999999,,0x37,0x2D
128.648125999999991,,0x7B,0x18
128.649469000000011,,0x6D,0x56
128.650749999999988,,0x07,0x62
128.652031999999991,,0xEC,0x57
128.653313999999995,,0x78,0xEA
128.654595999999998,,0x09,0x78
128.655877000000004,,0x6E,0x09
128.657159000000007,,0xEE,0x5E
128.658441000000010,,0x67,0xED
128.659721999999988,,0xD0,0x64
128.661003999999991,,0x70,0x3F
128.662285999999995,,0x56,0x64
128.663628999999986,,0x67,0xA0
128.664971000000008,,0xA3,0x64
128.666253000000012,,0x71,0x16
128.667534999999987,,0x2B,0x64
128.668816999999990,,0x68,0x32
128.670097999999996,,0x5D,0x64
128.671379999999999,,0x7B,0x33
128.672662000000003,,0x29,0x76
128.673944000000006,,0x0F,0xE4
128.675225000000012,,0x94,0x1E
128.676506999999987,,0x0A,0x14
128.677850000000007,,0x0F,0x1E
128.679192999999998,,0x55,0x0A
128.680474000000004,,0x81,0x55
128.681756000000007,,0x05,0x00
128.683038000000010,,0x00,0xFD
128.684320000000014,,0xD1,0x00
128.685600999999991,,0x80,0xA1
128.686882999999995,,0x9E,0x00
128.688164999999998,,0x00,0x97
128.689447000000001,,0xC9,0x01
128.690728000000007,,0x00,0x1B
128.692010000000010,,0xC7,0x00
128.693353000000002,,0x83,0xE8
128.694695999999993,,0x01,0x0E
128.695976999999999,,0xB5,0x00
128.697259000000003,,0x4D,0xF9
128.698541000000006,,0x00,0x2A
128.699823000000009,,0x18,0x00
128.701103999999987,,0x18,0x08
128.702385999999990,,0x03,0x03
128.703667999999993,,0x81,0x5A
128.704949999999997,,0x5E,0x8A
128.706231000000002,,0xC5,0x6D
128.707573999999994,,0x6D,0x65
128.708917000000014,,0xEA,0x5F
128.710198999999989,,0x78,0xEA
128.711479999999995,,0x0B,0x78
128.712761999999998,,0xBE,0x09
128.714044000000001,,0xA8,0xB8
128.715326000000005,,0x66,0x07
128.716607000000010,,0xC2,0x67
128.717889000000014,,0x6C,0x73
128.719170999999989,,0x77,0x68
128.720451999999995,,0xE5,0x82
128.721733999999998,,0x3F,0x68
128.723076999999989,,0x6C,0x1C
128.724420000000009,,0x18,0x67
128.725700999999987,,0x69,0x00
128.726982999999990,,0x36,0x66
128.728264999999993,,0x60,0xB2
128.729546999999997,,0xA6,0x54
128.730828000000002,,0x14,0x75
128.732110000000006,,0x0A,0x0F
128.733392000000009,,0x16,0x0A
128.734674000000012,,0x14,0x0F
128.735954999999990,,0x15,0x14
128.737298000000010,,0x01,0x55
128.738641000000001,,0x36,0x00
128.739923000000005,,0x00,0xF9
128.741204000000010,,0xED,0x00
128.742486000000014,,0x00,0x9E
128.743767999999989,,0xC0,0x00
128.745049999999992,,0x01,0x94
128.746330999999998,,0x95,0x00
128.747613000000001,,0x01,0xED
128.748895000000005,,0x37,0x01
128.750177000000008,,0x4A,0x0C
128.751458000000014,,0x01,0xB0
128.752801000000005,,0x38,0x00
128.754143999999997,,0x33,0x22
128.755426000000000,,0x00,0x00
128.756707000000006,,0x19,0x00
128.757989000000009,,0x02,0x14
128.759271000000012,,0x03,0x14
128.760552999999987,,0x40,0x2D
128.761833999999993,,0x1A,0x0A
128.763115999999997,,0x3D,0x2D
128.764398000000000,,0x13,0x34
128.765680000000003,,0xEA,0x00
128.767021999999997,,0x78,0xAC
128.768364999999989,,0x0F,0x15
128.769646999999992,,0xB6,0x00
128.770928999999995,,0xA8,0x05
128.772210000000001,,0x69,0xD9
128.773492000000005,,0xAE,0x02
128.774774000000008,,0x6B,0xB1
128.776056000000011,,0xBE,0x03
128.777336999999989,,0x7A,0x01
128.778618999999992,,0x97,0x02
128.779900999999995,,0x6A,0xC6
128.781182000000001,,0x23,0x03
128.782524999999993,,0x79,0x9B
128.783868000000012,,0x96,0x01
128.785149999999987,,0x31,0xC8
128.786431999999991,,0x91,0x6D
128.787712999999997,,0x33,0x8E
128.788995000000000,,0x0D,0x23
128.790277000000003,,0x05,0x28
128.791558000000009,,0x8F,0x19
128.792840000000012,,0x7D,0x00
128.794121999999987,,0x00,0x0D
128.795403999999991,,0x34,0x00
128.796746000000013,,0x00,0x22
128.798089000000004,,0xBD,0x00
128.799371000000008,,0x00,0x14
128.800653000000011,,0xD3,0x00
128.801933999999989,,0x80,0x14
128.803215999999992,,0xE7,0x00
128.804497999999995,,0x00,0x18
128.805779999999999,,0xFF,0x00
128.807061000000004,,0x80,0x16
128.808343000000008,,0x00,0x80
128.809625000000011,,0x00,0x00
128.810906999999986,,0x00,0x61
128.812249000000008,,0x00,0x21
128.813592000000000,,0x00,0x00
128.814874000000003,,0x00,0x15
128.816156000000007,,0x00,0x15
128.817437000000012,,0x00,0xBE
128.818718999999987,,0x00,0x0A
128.820000999999991,,0x00,0x27
128.821282999999994,,0x00,0x32
128.822564000000000,,0x00,0x00
128.823846000000003,,0x00,0xEA
128.825128000000007,,0x00,0x78
128.826470999999998,,0x00,0x00
128.827812999999992,,0x00,0x8C
128.829094999999995,,0x00,0x61
128.830376999999999,,0x00,0x00
128.831659000000002,,0x00,0x00
128.832940000000008,,0x00,0x00
128.834222000000011,,0x00,0x00
128.835503999999986,,0x00,0x00
128.836785999999989,,0x00,0x00
128.838066999999995,,0x00,0x00
128.839348999999999,,0x00,0x00
128.840631000000002,,0x00,0x00
128.841973999999993,,0x00,0x00
128.843315999999987,,0x00,0xA4
128.844597999999991,,0x00,0x7F
128.845879999999994,,0x00,0x23
128.847161999999997,,0x00,0x1E
128.848443000000003,,0x00,0x14
128.849725000000007,,0x00,0x00
128.851007000000010,,0x00,0x21
128.852287999999987,,0x00,0x00
128.853569999999991,,0x00,0x61
128.854851999999994,,0x00,0x00
128.856195000000014,,0x00,0x41
128.857537000000008,,0x00,0x00
128.858819000000011,,0x00,0x3B
128.860100999999986,,0x00,0x00
128.861382999999989,,0x00,0x41
128.862663999999995,,0x00,0x00
128.863945999999999,,0x00,0x43
128.865228000000002,,0x00,0xA5
128.866510000000005,,0x00,0x00
128.867791000000011,,0x00,0x1B
128.869072999999986,,0x00,0x00
128.870354999999989,,0x00,0x00
128.871698000000009,,0x00,0x00
128.873040000000003,,0x00,0x00
128.874322000000006,,0x00,0xFF
128.875604000000010,,0x00,0x21
128.876886000000013,,0x00,0x27
128.878166999999991,,0x00,0x62
128.879448999999994,,0x00,0x00
128.880730999999997,,0x00,0xAC
128.882013000000001,,0x00,0x15
128.883294000000006,,0x00,0x00
128.884576000000010,,0x00,0x03
128.885919000000001,,0x00,0x05
128.887261999999993,,0x00,0x01
128.888542999999999,,0x00,0x1B
128.889825000000002,,0x00,0x01
128.891107000000005,,0x00,0x1D
128.892389000000009,,0x00,0x01
128.893669999999986,,0x00,0x01
128.894951999999989,,0x00,0x01
128.896233999999993,,0x00,0x62
128.897515999999996,,0x00,0x00
128.898797000000002,,0x00,0xB4
128.900079000000005,,0x00,0xD1
128.901421999999997,,0x00,0x2D
128.902764999999988,,0x00,0x23
128.904045999999994,,0x00,0x1E
128.905327999999997,,0x00,0x1E
128.906610000000001,,0x00,0x00
128.907892000000004,,0x00,0x09
128.909173000000010,,0x00,0x00
128.910455000000013,,0x00,0x1B
128.911736999999988,,0x00,0x00
128.913018999999991,,0x00,0x11
128.914299999999997,,0x00,0x00
128.915642999999989,,0x00,0x0B
128.916986000000009,,0x00,0x00
128.918268000000012,,0x00,0x12
128.919548999999989,,0x00,0x00
128.920830999999993,,0x91,0x0C
128.922112999999996,,0x84,0x83
128.923394000000002,,0x03,0x91
128.924676000000005,,0x60,0x80
128.925958000000008,,0x80,0x82
128.927240000000012,,0x92,0x8E
128.928520999999989,,0x47,0x8D
128.929802999999993,,0x58,0x50
128.931146000000012,,0x88,0x00
128.932489000000004,,0x80,0x00
128.933770000000010,,0x02,0x00
128.935052000000013,,0x83,0x00
128.936333999999988,,0x90,0x83
128.937615999999991,,0x80,0x91
128.938896999999997,,0xC2,0x80
128.940179000000001,,0x86,0x82
128.941461000000004,,0x8D,0x8E
128.942743000000007,,0x50,0x8D
128.944024000000013,,0x00,0x50
128.945367000000005,,0x00,0x00
128.946709999999996,,0x00,0x00
128.947991999999999,,0x00,0x00
128.949273000000005,,0xC3,0x00
128.950555000000008,,0x99,0x83
128.951837000000012,,0x80,0x91
128.953118999999987,,0x82,0x80
128.954399999999993,,0xCE,0x82
128.955681999999996,,0x8D,0x8E
128.956963999999999,,0x50,0x8D
128.958246000000003,,0x00,0x50
128.959527000000008,,0x00,0x00
128.960870000000000,,0x00,0x00
128.962212999999991,,0x00,0x00
128.963494999999995,,0x83,0x00
128.964776000000001,,0xD1,0x91
128.966058000000004,,0x80,0x84
128.967340000000007,,0x82,0x83
128.968622000000011,,0x8E,0x50
128.969902999999988,,0xCD,0x80
128.971184999999991,,0x50,0x92
128.972466999999995,,0x00,0x87
128.973748999999998,,0x00,0x50
128.975090999999992,,0x00,0x89
128.976434000000012,,0x00,0x80
128.977715999999987,,0x00,0x82
128.978997999999990,,0x00,0x83
128.980278999999996,,0x00,0x91
128.981560999999999,,0x00,0x80
128.982843000000003,,0x00,0x82
128.984125000000006,,0x00,0x8E
128.985406000000012,,0x00,0x8D
128.986687999999987,,0x00,0x50
128.987969999999990,,0x00,0x00
128.989250999999996,,0x00,0x00
128.990593999999987,,0x00,0x00
128.991937000000007,,0x00,0x00
128.993219000000011,,0x00,0x91
128.994499999999988,,0x00,0x84
128.995781999999991,,0x00,0x83
128.997063999999995,,0x00,0x50
128.998345999999998,,0x00,0x80
128.999627000000004,,0x00,0x92
129.000909000000007,,0x00,0x87
129.002191000000010,,0x00,0x50
129.003473000000014,,0x00,0x89
129.004815000000008,,0x00,0x80
129.006157999999999,,0x8F,0x82
129.007440000000003,,0x88,0xE3
129.008722000000006,,0x83,0xA7
129.010003000000012,,0xC6,0xA0
129.011284999999987,,0x84,0xA2
129.012566999999990,,0x98,0xAA
129.013848999999993,,0x50,0xE3
129.015129999999999,,0x10,0xA4
129.016412000000003,,0x58,0xAC
129.017694000000006,,0x50,0xE3
129.018976000000009,,0x50,0x80
129.020318000000003,,0xCC,0x50
129.021660999999995,,0x80,0xAB
129.022942999999998,,0x87,0xAB
129.024225000000001,,0x8C,0xE3
129.025506000000007,,0xC0,0x8F
129.026788000000010,,0x99,0x96
129.028070000000014,,0x50,0x8D
129.029351999999989,,0x50,0xAA
129.030632999999995,,0x70,0xA4
129.031914999999998,,0x58,0xAC
129.033197000000001,,0x50,0xAE
129.034539999999993,,0x8C,0x50
129.035881999999987,,0xC4,0xAD
129.037163999999990,,0x9A,0xE7
129.038445999999993,,0x93,0xE7
129.039727999999997,,0x96,0xE7
129.041009000000003,,0xCE,0x9B
129.042291000000006,,0x50,0x50
129.043573000000009,,0x50,0x09
129.044855000000013,,0x50,0x0B
129.046135999999990,,0x60,0x09
129.047417999999993,,0x50,0x02
129.048699999999997,,0x82,0x00
129.050042999999988,,0x92,0x82
129.051385000000010,,0xC2,0x87
129.052667000000014,,0x86,0x80
129.053948999999989,,0x9A,0x91
129.055230999999992,,0x86,0x8C
129.056511999999998,,0x8E,0x80
129.057794000000001,,0x8F,0x8D
129.059076000000005,,0x8D,0x83
129.060357000000010,,0x80,0x84
129.061639000000014,,0x78,0x91
129.062920999999989,,0x00,0x50
129.064264000000009,,0x00,0x86
129.065607000000000,,0x00,0x8E
129.066888000000006,,0x00,0x8B
129.068170000000009,,0x00,0x83
129.069452000000013,,0x00,0x94
129.070732999999990,,0x00,0x82
129.072014999999993,,0x00,0x8A
129.073296999999997,,0x00,0x50
129.074579000000000,,0x00,0x50
129.075860000000006,,0x00,0x50
129.077142000000009,,0x00,0x50
129.078424000000012,,0x00,0x91
129.079767000000004,,0x00,0x80
129.081108999999998,,0x00,0x93
129.082391000000001,,0x00,0x93
129.083673000000005,,0x00,0x80
129.084955000000008,,0x00,0x93
129.086236000000014,,0x00,0x80
129.087517999999989,,0x00,0x50
129.088799999999992,,0x00,0x50
129.090081999999995,,0x00,0x50
129.091363000000001,,0x08,0x50
129.092645000000005,,0x98,0xFF
129.093987999999996,,0x04,0x9F
129.095330999999987,,0xFD,0x07
129.096673000000010,,0xFD,0xFD
129.097955000000013,,0xFD,0xFD
129.099236999999988,,0xFD,0xFD
129.100518999999991,,0xFD,0xFD
129.101799999999997,,0xFD,0x00
129.103082000000001,,0x00,0x00
129.104364000000004,,0x00,0x00
129.105646000000007,,0x00,0x00
129.106927000000013,,0x00,0x00
129.108208999999988,,0x00,0x00
129.109552000000008,,0x00,0x00
129.110894999999999,,0x00,0xFF
129.112176000000005,,0xD0,0xFF
129.113458000000008,,0xFF,0x00
129.114740000000012,,0xFF,0x00
129.116021999999987,,0x00,0x00
129.117302999999993,,0x00,0x00
129.118584999999996,,0x00,0x00
129.119866999999999,,0x00,0x00
129.121149000000003,,0x00,0x00
129.122430000000008,,0x00,0x00
129.123712000000012,,0x00,0x00
129.125055000000003,,0x00,0x00
129.126397999999995,,0x00,0x00
129.127679000000001,,0x00,0x00
129.128961000000004,,0x00,0x00
129.130243000000007,,0x00,0x00
129.131524000000013,,0x00,0x00
129.132805999999988,,0x00,0x00
129.134087999999991,,0x00,0x00
129.135369999999995,,0x00,0x00
129.136651000000001,,0x00,0x00
129.137933000000004,,0x00,0x00
129.139275999999995,,0x00,0x00
129.140618999999987,,0x00,0x00
129.141899999999993,,0x00,0x00
129.143181999999996,,0x00,0x00
129.144463999999999,,0x00,0x00
129.145746000000003,,0x00,0x00
129.147027000000008,,0x00,0x00
129.148309000000012,,0x00,0x00
129.149590999999987,,0x00,0x00
129.150872999999990,,0x00,0x00
129.152153999999996,,0x00,0x00
129.153435999999999,,0x00,0x00
129.154778999999991,,0x00,0x00
129.156122000000011,,0x00,0x00
129.157402999999988,,0x00,0x00
129.158684999999991,,0x00,0x00
129.159966999999995,,0x00,0x00
129.161248999999998,,0x00,0x00
129.162530000000004,,0x00,0x00
129.163812000000007,,0x00,0x00
129.165094000000011,,0x00,0x00
129.166376000000014,,0x00,0x00
129.167656999999991,,0x00,0x00
129.169000000000011,,0x00,0x00
129.170343000000003,,0x00,0x00
129.171625000000006,,0x00,0x00
129.172906000000012,,0x00,0x00
129.174187999999987,,0x00,0x00
129.175469999999990,,0x00,0x00
129.176751999999993,,0x00,0x00
129.178032999999999,,0x00,0x00
129.179315000000003,,0x00,0x00
129.180597000000006,,0x00,0x00
129.181879000000009,,0x00,0x00
129.183159999999987,,0x00,0x00
129.184503000000007,,0x00,0x00
129.185845999999998,,0x00,0x00
129.187128000000001,,0x00,0x00
129.188409000000007,,0x00,0x00
129.189691000000010,,0x00,0x00
129.190973000000014,,0x00,0x00
129.192254999999989,,0x00,0x00
129.193535999999995,,0x00,0x00
129.194817999999998,,0x00,0x00
129.196100000000001,,0x00,0x00
129.197381000000007,,0x00,0x00
129.198723999999999,,0x00,0x00
129.200066999999990,,0x00,0x00
129.201348999999993,,0x00,0x00
129.202629999999999,,0x00,0x00
129.203912000000003,,0x00,0x00
129.205194000000006,,0x00,0x00
129.206476000000009,,0x00,0x00
129.207756999999987,,0x00,0x00
129.209038999999990,,0x00,0x00
129.210320999999993,,0x00,0x00
129.211602999999997,,0x00,0x00
129.212884000000003,,0x00,0x00
129.214226999999994,,0x00,0x00
129.215570000000014,,0x00,0x00
129.216851999999989,,0x00,0x00
129.218132999999995,,0x00,0x00
129.219414999999998,,0x00,0x00
129.220697000000001,,0x00,0x00
129.221979000000005,,0x00,0x00
129.223260000000010,,0x00,0x00
129.224542000000014,,0x00,0x00
129.225823999999989,,0x00,0x00
129.227105999999992,,0x00,0x00
129.228447999999986,,0x00,0x00
129.229791000000006,,0x00,0x00
129.231073000000009,,0x00,0x00
129.232355000000013,,0x00,0x00
129.233635999999990,,0x00,0x00
129.234917999999993,,0x00,0x00
129.236199999999997,,0x00,0x00
129.237482000000000,,0x00,0x00
129.238763000000006,,0x00,0x00
129.240045000000009,,0x00,0x00
129.241327000000013,,0x00,0x00
129.242608999999987,,0x00,0x00
129.243951000000010,,0x00,0x00
129.245294000000001,,0x00,0x00
129.246576000000005,,0x00,0x00
129.247858000000008,,0x00,0x00
129.249139000000014,,0x00,0x00
129.250420999999989,,0x00,0x00
129.251702999999992,,0x00,0x00
129.252984999999995,,0x00,0x00
129.254266000000001,,0x00,0x00
129.255548000000005,,0x00,0x00
129.256830000000008,,0x00,0x00
129.258172999999999,,0x00,0x00
129.259514999999993,,0x00,0x00
129.260796999999997,,0x00,0x00
129.262079000000000,,0x00,0x00
129.263361000000003,,0x00,0x00
129.264642000000009,,0x00,0x00
129.265924000000012,,0x00,0x00
129.267205999999987,,0x00,0x00
129.268486999999993,,0x00,0x00
129.269768999999997,,0x00,0x00
129.271051000000000,,0x00,0x00
129.272333000000003,,0x00,0x00
129.273674999999997,,0x00,0x00
129.275017999999989,,0x00,0x00
129.276299999999992,,0x00,0x00
129.277581999999995,,0x00,0x00
129.278863000000001,,0x00,0x00
129.280145000000005,,0x00,0x00
129.281427000000008,,0x00,0x00
129.282709000000011,,0x00,0x00
129.283989999999989,,0x00,0x00
129.285271999999992,,0x00,0x00
129.286553999999995,,0x00,0x00
129.287896999999987,,0x00,0x00
129.289239000000009,,0x00,0x00
129.290521000000012,,0x00,0x00
129.291802999999987,,0x00,0x00
129.293084999999991,,0x00,0x00
129.294365999999997,,0x00,0x00
129.295648000000000,,0x00,0x00
129.296930000000003,,0x00,0x00
129.298212000000007,,0x00,0x00
129.299493000000012,,0x00,0x00
129.300774999999987,,0x00,0x00
129.302056999999991,,0x00,0x00
129.303400000000011,,0x00,0x00
129.304742000000005,,0x00,0x00
129.306024000000008,,0x00,0x00
129.307306000000011,,0x00,0x00
129.308587999999986,,0x00,0x00
129.309868999999992,,0x00,0x00
129.311150999999995,,0x00,0x00
129.312432999999999,,0x00,0x00
129.313715000000002,,0x00,0x00
129.314996000000008,,0x00,0x00
129.316278000000011,,0x00,0x00
129.317621000000003,,0x00,0x00
129.318963999999994,,0x00,0x00
129.320245000000000,,0x00,0x00
129.321527000000003,,0x00,0x00
129.322809000000007,,0x00,0x00
129.324091000000010,,0x00,0x00
129.325371999999987,,0x00,0x00
129.326653999999991,,0x00,0x00
129.327935999999994,,0x00,0x00
129.329217000000000,,0x00,0x00
129.330499000000003,,0x00,0x00
129.331781000000007,,0x00,0x00
129.333123999999998,,0x00,0x00
129.334466999999989,,0x00,0x00
129.335747999999995,,0x00,0x00
129.337029999999999,,0x00,0x00
129.338312000000002,,0x00,0x00
129.339593000000008,,0x00,0x00
129.340875000000011,,0x00,0x00
129.342156999999986,,0x00,0x00
129.343438999999989,,0x00,0x00
129.344719999999995,,0x00,0x00
129.346001999999999,,0x00,0x00
129.347344999999990,,0x00,0x00
129.348688000000010,,0x00,0x00
129.349968999999987,,0x00,0x00
129.351250999999991,,0x00,0x00
129.352532999999994,,0x00,0x00
129.353814999999997,,0x00,0x00
135.887081999999992,,0x00,0x00
135.903744999999986,,0x60,0x60
135.920530000000014,,0x60,0x60
135.954037999999997,,0x60,0x60
135.970700999999991,,0x60,0x60
135.987424000000004,,0x70,0x60
136.004147999999986,,0x60,0x60
136.021359999999987,,0x60,0x60
136.037655999999998,,0x70,0x60
136.054380000000009,,0x60,0x60
136.071165000000008,,0x60,0x60
136.087949000000009,,0x70,0x60
136.104612000000003,,0x60,0x60
136.123106000000007,,0x60,0x60
136.138058999999998,,0x00,0x00
136.154905000000014,,0x00,0x00
136.171567000000010,,0x00,0x00
136.188290999999992,,0x00,0x00
136.205015000000003,,0x00,0x00
136.222227000000004,,0x00,0x00
136.238522999999986,,0x00,0x00
136.255246999999997,,0x00,0x00
136.272030999999998,,0x00,0x00
140.374022999999994,,0x00,0x00
140.390747000000005,,0x62,0x62
140.407531000000006,,0x62,0x62
140.440978999999999,,0x62,0x62
140.458678999999989,,0x63,0x62
140.474547999999999,,0x62,0x62
140.491272000000009,,0x62,0x62
140.508056000000010,,0x62,0x62
140.524719000000005,,0x61,0x62
140.541869999999989,,0x63,0x62
140.558226999999988,,0x62,0x62
140.574950999999999,,0x63,0x62
140.591797000000014,,0x62,0x62
140.608459000000011,,0x72,0x62
140.625122000000005,,0x00,0x00
140.644348000000008,,0x00,0x00
140.658569000000000,,0x00,0x00
140.675353999999999,,0x00,0x00
140.692078000000009,,0x00,0x00
140.708800999999994,,0x00,0x00
140.725525000000005,,0x00,0x00
140.742675999999989,,0x00,0x00
140.759032999999988,,0x00,0x00
183.451676999999989,,0x00,0x00
183.468460999999991,,0xFE,0x62
183.485550999999987,,0xFE,0x62
183.501970000000000,,0xFE,0x62
183.518754000000001,,0xFE,0x62
183.535416999999995,,0xFF,0x62
183.552141000000006,,0xFE,0x62
183.568925000000007,,0xFE,0x62
183.585648999999989,,0xFE,0x62
183.602495000000005,,0xFE,0x62
183.619096000000013,,0xFE,0x62
183.635881000000012,,0xFE,0x62
183.652603999999997,,0xFE,0x62
183.669328000000007,,0xFE,0x62
183.686173999999994,,0xFE,0x62
183.705339000000009,,0xFE,0x62
183.719499000000013,,0xFF,0x62
183.736284000000012,,0xFE,0x62
183.753006999999997,,0xFE,0x62
183.769731000000007,,0xFF,0x62
183.786516000000006,,0xFE,0x62
183.803238999999991,,0xFE,0x62
183.820023999999989,,0xFF,0x62
183.836748000000000,,0xFE,0x62
183.853592999999989,,0xFE,0x62
183.870256000000012,,0xFE,0x62
183.887041000000011,,0xFE,0x62
183.904130000000009,,0xFE,0x62
183.920488000000006,,0xFE,0x62
183.937210999999991,,0xFE,0x62
183.954057000000006,,0xFE,0x62
183.970780999999988,,0xFE,0x62
183.987443000000013,,0xFE,0x62
184.004166999999995,,0xFF,0x62
184.020951999999994,,0xFE,0x62
184.037675000000007,,0xFE,0x62
184.054582000000011,,0xFE,0x62
184.071183999999988,,0xFE,0x62
184.087907000000001,,0xFE,0x62
184.107193999999993,,0xFE,0x62
184.121354999999994,,0x62,0x62
184.138138999999995,,0xFE,0x62
184.171525000000003,,0x62,0x62
184.188310000000001,,0x62,0x62
184.205034000000012,,0x62,0x62
184.221818000000013,,0x62,0x62
184.238541999999995,,0x62,0x62
184.255388000000011,,0x62,0x62
184.272050000000007,,0x22,0x62
184.288835000000006,,0x62,0x62
184.305620000000005,,0x62,0x62
184.322649000000013,,0x00,0x62
184.339067000000000,,0x00,0x62
184.355729999999994,,0x00,0x00
184.372453000000007,,0x00,0x00
184.389238000000006,,0x00,0x00
184.406023000000005,,0x00,0x00
184.422807000000006,,0x00,0x00
184.439470000000000,,0x00,0x00
184.456194000000011,,0x00,0x00
184.472916999999995,,0x00,0x00
184.489701999999994,,0xFE,0x00
186.058367000000004,,0xFF,0x00
186.063615999999996,,0x63,0x62
186.080340000000007,,0xFE,0x62
186.113787000000002,,0x62,0x62
186.130509999999987,,0x62,0x62
186.147295000000014,,0x62,0x62
186.163958000000008,,0x62,0x62
186.184281999999996,,0x62,0x62
186.197405000000003,,0x63,0x62
186.214190000000002,,0xFE,0x62
186.230912999999987,,0x72,0x62
186.247636999999997,,0x63,0x62
186.264421999999996,,0x62,0x62
186.281083999999993,,0x72,0x62
186.297868999999992,,0x00,0x00
186.314593000000002,,0x00,0x00
186.331377000000003,,0x00,0x00
186.348162000000002,,0x00,0x00
186.364947000000001,,0x00,0x00
186.381975000000011,,0x00,0x00
186.398333000000008,,0x00,0x00
186.415117000000009,,0x00,0x00
186.431902000000008,,0x00,0x00
186.482073000000014,,0x00,0x00
186.498796999999996,,0xFD,0x00
186.549090000000007,,0xFD,0x00
186.550371000000013,,0xFD,0xFD
186.551652999999988,,0xFD,0xFD
186.552934999999991,,0xFD,0xFD
186.554216999999994,,0xFD,0xFD
186.555498000000000,,0xFD,0xFD
186.556780000000003,,0xFF,0xFD
186.558062000000007,,0xFD,0xFD
186.559344000000010,,0xFD,0xFD
186.560686000000004,,0xFD,0xEF
186.562028999999995,,0x22,0x7A
186.563310999999999,,0xD3,0x07
186.564593000000002,,0x86,0x96
186.565874000000008,,0x3B,0x26
186.567156000000011,,0xF8,0xB8
186.568437999999986,,0xAA,0x4C
186.569719999999990,,0x64,0xE2
186.571000999999995,,0x30,0x7A
186.572343999999987,,0xDE,0x14
186.573625999999990,,0x9E,0xFD
186.574907999999994,,0xFD,0xFD
186.576188999999999,,0xFD,0xFD
186.577471000000003,,0xFF,0xFD
186.578753000000006,,0xFD,0xFD
186.580034000000012,,0xFD,0xFD
186.581315999999987,,0xFD,0xFD
186.582659000000007,,0xFF,0xFD
186.584001999999998,,0x91,0xFD
186.585284000000001,,0x84,0x83
186.586565000000007,,0x83,0x91
186.587847000000011,,0x50,0x80
186.589129000000014,,0x80,0x82
186.590410999999989,,0x92,0x8E
186.591691999999995,,0x87,0x8D
186.592973999999998,,0x50,0x50
186.594256000000001,,0x89,0x00
186.595537000000007,,0xC0,0x00
186.596879999999999,,0x82,0x00
186.598222999999990,,0x06,0x00
186.599504999999994,,0x33,0x06
186.600785999999999,,0x83,0x68
186.602068000000003,,0x4A,0x0E
186.603350000000006,,0x31,0xB0
186.604632000000009,,0xFF,0x80
186.605912999999987,,0x80,0xA5
186.607194999999990,,0x00,0x24
186.608476999999993,,0x33,0xFF
186.609758999999997,,0x01,0x68
186.611040000000003,,0x85,0x00
186.612382999999994,,0x32,0xFD
186.613726000000014,,0x00,0x19
186.615007999999989,,0x14,0x00
186.616288999999995,,0x14,0x17
186.617570999999998,,0x3D,0x17
186.618853000000001,,0x35,0x2D
186.620135000000005,,0x7B,0x18
186.621416000000011,,0xED,0x56
186.622698000000014,,0x07,0x62
186.623979999999989,,0xEA,0x57
186.625261999999992,,0x78,0xEA
186.626603999999986,,0x09,0x78
186.627947000000006,,0x5E,0x09
186.629229000000009,,0xED,0x5E
186.630511000000013,,0x67,0xED
186.631791999999990,,0x70,0x64
186.633073999999993,,0x6C,0x3F
186.634355999999997,,0x54,0x64
186.635638000000000,,0x67,0xA0
186.636919000000006,,0xF3,0x64
186.638201000000009,,0x6C,0x16
186.639483000000013,,0x2A,0x64
186.640763999999990,,0x68,0x32
186.642107000000010,,0x6D,0x64
186.643450000000001,,0x5D,0x33
186.644732000000005,,0x29,0x76
186.646014000000008,,0x0F,0xE4
186.647295000000014,,0x14,0x1E
186.648576999999989,,0x0F,0x14
186.649858999999992,,0x0F,0x1E
186.651139999999998,,0xD5,0x0A
186.652422000000001,,0x01,0x55
186.653704000000005,,0x06,0x00
186.654986000000008,,0x00,0xFD
186.656328000000002,,0x51,0x00
186.657670999999993,,0x00,0xA1
186.658952999999997,,0x9B,0x00
186.660235000000000,,0x00,0x97
186.661516000000006,,0x49,0x01
186.662798000000009,,0x00,0x1B
186.664080000000013,,0xC7,0x00
186.665361999999988,,0x83,0xE8
186.666642999999993,,0x81,0x0E
186.667924999999997,,0x3D,0x00
186.669207000000000,,0x49,0xF9
186.670489000000003,,0x00,0x2A
186.671830999999997,,0x18,0x00
186.673173999999989,,0x1C,0x08
186.674455999999992,,0x03,0x03
186.675737999999996,,0x81,0x5A
186.677019000000001,,0x9E,0x8A
186.678301000000005,,0x81,0x6D
186.679583000000008,,0x69,0x65
186.680865000000011,,0xEA,0x5F
186.682145999999989,,0x78,0xEA
186.683427999999992,,0x0F,0x78
186.684709999999995,,0xB6,0x09
186.686052999999987,,0xA8,0xB8
186.687395000000009,,0x26,0x07
186.688677000000013,,0x9A,0x67
186.689958999999988,,0x68,0x73
186.691240999999991,,0x77,0x68
186.692521999999997,,0xE5,0x82
186.693804000000000,,0x2F,0x68
186.695086000000003,,0x69,0x1C
186.696368000000007,,0x18,0x67
186.697649000000013,,0x79,0x00
186.698930999999988,,0x27,0x66
186.700212999999991,,0x60,0xB2
186.701556000000011,,0xA6,0x54
186.702898000000005,,0x14,0x75
186.704180000000008,,0x0C,0x0F
186.705462000000011,,0x14,0x0A
186.706743999999986,,0x14,0x0F
186.708024999999992,,0x75,0x14
186.709306999999995,,0x01,0x55
186.710588999999999,,0x35,0x00
186.711870000000005,,0x80,0xF9
186.713152000000008,,0xFD,0x00
186.714434000000011,,0x00,0x9E
186.715777000000003,,0xC0,0x00
186.717119999999994,,0x01,0x94
186.718401000000000,,0x05,0x00
186.719683000000003,,0x01,0xED
186.720965000000007,,0x37,0x01
186.722246000000013,,0xCA,0x0C
186.723527999999988,,0x01,0xB0
186.724809999999991,,0x36,0x00
186.726091999999994,,0x32,0x22
186.727373000000000,,0x00,0x00
186.728655000000003,,0x1D,0x00
186.729937000000007,,0x03,0x14
186.731279999999998,,0x03,0x14
186.732621999999992,,0xC0,0x2D
186.733903999999995,,0x3A,0x0A
186.735185999999999,,0x3B,0x2D
186.736468000000002,,0x13,0x34
186.737749000000008,,0xEA,0x00
186.739031000000011,,0x7C,0xAC
186.740312999999986,,0x0B,0x15
186.741594999999990,,0xB6,0x00
186.742875999999995,,0xC8,0x05
186.744157999999999,,0x6D,0xD9
186.745500999999990,,0xAB,0x02
186.746844000000010,,0x6B,0xB1
186.748124999999987,,0xFE,0x03
186.749406999999991,,0x6E,0x01
186.750688999999994,,0x96,0x02
186.751970999999998,,0x6A,0xC6
186.753252000000003,,0xC3,0x03
186.754534000000007,,0x6D,0x9B
186.755816000000010,,0x96,0x01
186.757098000000013,,0x31,0xC8
186.758378999999991,,0xC1,0x6D
186.759660999999994,,0x21,0x8E
186.761004000000014,,0x0A,0x23
186.762347000000005,,0x05,0x28
186.763628000000011,,0x0F,0x19
186.764909999999986,,0x57,0x00
186.766191999999990,,0x01,0x0D
186.767472999999995,,0xB4,0x00
186.768754999999999,,0x00,0x22
186.770037000000002,,0xBE,0x00
186.771319000000005,,0x00,0x14
186.772600000000011,,0x53,0x00
186.773881999999986,,0x00,0x14
186.775225000000006,,0xC7,0x00
186.776567999999997,,0x00,0x18
186.777850000000001,,0xFF,0x00
186.779131000000007,,0x31,0x16
186.780413000000010,,0x00,0x80
186.781695000000013,,0x13,0x00
186.782975999999991,,0xAE,0x61
186.784257999999994,,0x00,0x21
186.785539999999997,,0x07,0x00
186.786822000000001,,0x04,0x15
186.788103000000007,,0xFF,0x15
186.789385000000010,,0x59,0xBE
186.790728000000001,,0x58,0x0A
186.792070999999993,,0x9D,0x27
186.793351999999999,,0x99,0x32
186.794634000000002,,0xF2,0x00
186.795916000000005,,0x78,0xEA
186.797198000000009,,0x09,0x78
186.798478999999986,,0xF8,0x00
186.799760999999990,,0x03,0x8C
186.801042999999993,,0x67,0x61
186.802324999999996,,0x8A,0x00
186.803606000000002,,0x68,0x00
186.804948999999993,,0xBD,0x00
186.806292000000013,,0x67,0x00
186.807573999999988,,0xB4,0x00
186.808854999999994,,0x27,0x00
186.810136999999997,,0xAF,0x00
186.811419000000001,,0x67,0x00
186.812701000000004,,0x63,0x00
186.813982000000010,,0x01,0x00
186.815264000000013,,0x9E,0xA4
186.816545999999988,,0x0A,0x7F
186.817827999999992,,0x0F,0x23
186.819108999999997,,0x0A,0x1E
186.820451999999989,,0x07,0x14
186.821795000000009,,0x55,0x00
186.823077000000012,,0x01,0x21
186.824357999999989,,0x13,0x00
186.825639999999993,,0x00,0x61
186.826921999999996,,0xE2,0x00
186.828203999999999,,0x01,0x41
186.829485000000005,,0x05,0x00
186.830767000000009,,0x00,0x3B
186.832049000000012,,0x82,0x00
186.833329999999989,,0x00,0x41
186.834673000000009,,0x88,0x00
186.836016000000001,,0x00,0x43
186.837298000000004,,0x00,0xA5
186.838579000000010,,0x00,0x00
186.839861000000013,,0x00,0x1B
186.841142999999988,,0x00,0x00
186.842424999999992,,0x00,0x00
186.843705999999997,,0x00,0x00
186.844988000000001,,0x00,0x00
186.846270000000004,,0x00,0xFF
186.847552000000007,,0x00,0x21
186.848833000000013,,0x00,0x27
186.850176000000005,,0x00,0x62
186.851518999999996,,0x00,0x00
186.852800999999999,,0x00,0xAC
186.854082000000005,,0x00,0x15
186.855364000000009,,0x00,0x00
186.856646000000012,,0x00,0x03
186.857927999999987,,0x00,0x05
186.859208999999993,,0x00,0x01
186.860490999999996,,0x00,0x1B
186.861772999999999,,0x00,0x01
186.863055000000003,,0x00,0x1D
186.864396999999997,,0x00,0x01
186.865739999999988,,0x00,0x01
186.867021999999992,,0x00,0x01
186.868303999999995,,0x00,0x62
186.869585000000001,,0x00,0x00
186.870867000000004,,0x00,0xB4
186.872149000000007,,0x00,0xD1
186.873431000000011,,0x00,0x2D
186.874711999999988,,0x00,0x23
186.875993999999992,,0x00,0x1E
186.877275999999995,,0x00,0x1E
186.878557999999998,,0x00,0x00
186.879899999999992,,0x00,0x09
186.881243000000012,,0x00,0x00
186.882524999999987,,0x00,0x1B
186.883806999999990,,0x00,0x00
186.885087999999996,,0x00,0x11
186.886369999999999,,0x00,0x00
186.887652000000003,,0x00,0x0B
186.888934000000006,,0x00,0x00
186.890215000000012,,0x00,0x12
186.891496999999987,,0x00,0x00
186.892778999999990,,0x00,0x0C
186.894122000000010,,0x00,0x24
186.895464000000004,,0x00,0x00
186.896746000000007,,0x00,0x1E
186.898028000000011,,0x00,0x00
186.899310000000014,,0x00,0x00
186.900590999999991,,0x00,0x00
186.901872999999995,,0x00,0x02
186.903154999999998,,0x00,0xFF
186.904436000000004,,0x00,0x10
186.905718000000007,,0x00,0x00
186.907000000000011,,0x00,0x00
186.908282000000014,,0x00,0x00
186.909624000000008,,0x00,0xAC
186.910966999999999,,0x00,0x15
186.912249000000003,,0x00,0x00
186.913531000000006,,0x00,0x03
186.914812000000012,,0x00,0x0C
186.916093999999987,,0x00,0x00
186.917375999999990,,0x00,0xE6
186.918657999999994,,0x00,0x00
186.919938999999999,,0x00,0xAA
186.921221000000003,,0x00,0x00
186.922503000000006,,0x00,0xFA
186.923845999999998,,0x00,0x00
186.925187999999991,,0x00,0xC4
186.926469999999995,,0x00,0x00
186.927751999999998,,0x00,0x6E
186.929034000000001,,0x00,0x60
186.930315000000007,,0x00,0xDA
186.931597000000011,,0x00,0x23
186.932879000000014,,0x00,0x00
186.934160999999989,,0x00,0x00
186.935441999999995,,0x00,0x00
186.936723999999998,,0x00,0x0B
186.938006000000001,,0x00,0x00
186.939348999999993,,0x00,0x1E
186.940690999999987,,0x00,0x00
186.941972999999990,,0x00,0x10
186.943254999999994,,0x00,0x00
186.944536999999997,,0x00,0x0E
186.945818000000003,,0x00,0x00
186.947100000000006,,0x00,0x14
186.948382000000009,,0x00,0x00
186.949664000000013,,0x83,0x0F
186.950944999999990,,0x81,0x83
186.952226999999993,,0x80,0x91
186.953570000000013,,0x82,0x80
186.954913000000005,,0x8E,0x82
186.956194000000011,,0xCD,0x8E
186.957476000000014,,0x58,0x8D
186.958757999999989,,0x00,0x50
186.960039999999992,,0x00,0x00
186.961320999999998,,0x00,0x00
186.962603000000001,,0x00,0x00
186.963885000000005,,0x83,0x00
186.965166000000011,,0x91,0x83
186.966448000000014,,0x80,0x91
186.967729999999989,,0x83,0x80
186.969073000000009,,0x8E,0x82
186.970416000000000,,0x8D,0x8E
186.971697000000006,,0x60,0x8D
186.972979000000009,,0x00,0x50
186.974261000000013,,0x00,0x00
186.975541999999990,,0x00,0x00
186.976823999999993,,0x00,0x00
186.978105999999997,,0x83,0x00
186.979388000000000,,0x91,0x91
186.980669000000006,,0xC0,0x84
186.981951000000009,,0x82,0x83
186.983294000000001,,0x8F,0x50
186.984636999999992,,0x8D,0x80
186.985917999999998,,0x90,0x92
186.987200000000001,,0x00,0x87
186.988482000000005,,0x00,0x50
186.989764000000008,,0x00,0x89
186.991045000000014,,0x00,0x80
186.992326999999989,,0x83,0x82
186.993608999999992,,0x91,0x83
186.994890999999996,,0x80,0x91
186.996172000000001,,0xC2,0x80
186.997454000000005,,0x8E,0x82
186.998796999999996,,0x8D,0x8E
187.000139999999988,,0x50,0x8D
187.001420999999993,,0x00,0x50
187.002702999999997,,0x00,0x00
187.003985000000000,,0x00,0x00
187.005267000000003,,0x00,0x00
187.006548000000009,,0x00,0x00
187.007830000000013,,0x00,0x91
187.009111999999988,,0x00,0x84
187.010393999999991,,0x00,0x83
187.011674999999997,,0x00,0x50
187.013017999999988,,0x00,0x80
187.014361000000008,,0x00,0x92
187.015643000000011,,0x00,0x87
187.016923999999989,,0x00,0x50
187.018205999999992,,0x00,0x89
187.019487999999996,,0x00,0x80
187.020769999999999,,0x00,0x82
187.022051000000005,,0x00,0x91
187.023333000000008,,0x00,0x84
187.024615000000011,,0x00,0x83
187.025895999999989,,0x00,0x50
187.027177999999992,,0x00,0x80
187.028521000000012,,0x00,0x92
187.029864000000003,,0x00,0x87
187.031145000000009,,0x00,0x50
187.032427000000013,,0x00,0x89
187.033708999999988,,0x00,0x80
187.034990999999991,,0x8C,0x82
187.036271999999997,,0x00,0xAB
187.037554000000000,,0x86,0xAB
187.038836000000003,,0x8E,0xE3
187.040118000000007,,0x80,0x8F
187.041399000000013,,0xD1,0x96
187.042742000000004,,0x58,0x8D
187.044084999999995,,0x50,0xAA
187.045366999999999,,0x50,0xA4
187.046648000000005,,0x10,0xAC
187.047930000000008,,0x58,0xAE
187.049212000000011,,0x8C,0x50
187.050493999999986,,0x84,0xAD
187.051774999999992,,0xD6,0xE7
187.053056999999995,,0x9B,0xE7
187.054338999999999,,0x97,0xE7
187.055621000000002,,0x8E,0x9B
187.056902000000008,,0x70,0x50
187.058244999999999,,0x58,0x09
187.059587999999991,,0x50,0x0B
187.060869999999994,,0x50,0x09
187.062151000000000,,0x10,0x02
187.063433000000003,,0x82,0x00
187.064715000000007,,0x92,0x82
187.065997000000010,,0x82,0x87
187.067277999999988,,0xC6,0x80
187.068559999999991,,0x9C,0x91
187.069841999999994,,0x86,0x8C
187.071123999999998,,0x8E,0x80
187.072465999999991,,0xCD,0x8D
187.073809000000011,,0x8D,0x83
187.075090999999986,,0x80,0x84
187.076372999999990,,0x50,0x91
187.077653999999995,,0xE3,0x50
187.078935999999999,,0xA7,0x86
187.080218000000002,,0xA0,0x8E
187.081500000000005,,0xA2,0x8B
187.082781000000011,,0xBA,0x83
187.084062999999986,,0xE3,0x94
187.085344999999990,,0xA4,0x82
187.086626999999993,,0xAC,0x8A
187.087968999999987,,0xF3,0x50
187.089312000000007,,0x80,0x50
187.090594000000010,,0x50,0x50
187.091876000000013,,0x00,0x50
187.093156999999991,,0x00,0x91
187.094438999999994,,0x00,0x80
187.095720999999998,,0x00,0x93
187.097002000000003,,0x00,0x93
187.098284000000007,,0x00,0x80
187.099566000000010,,0x00,0x93
187.100848000000013,,0x00,0x80
187.102190000000007,,0x00,0x50
187.103532999999999,,0x00,0x50
187.104815000000002,,0x00,0x50
187.106097000000005,,0x00,0x50
187.107378000000011,,0x00,0x8F
187.108659999999986,,0x00,0x88
187.109941999999990,,0x00,0x83
187.111223999999993,,0x00,0x86
187.112504999999999,,0x00,0x84
187.113787000000002,,0x00,0x98
187.115069000000005,,0x00,0x50
187.116351000000009,,0x00,0x50
187.117693000000003,,0x00,0x50
187.119035999999994,,0x00,0x50
187.120317999999997,,0x08,0x50
187.121600000000001,,0x90,0xFF
187.122881000000007,,0x04,0x9F
187.124223999999998,,0xFD,0x07
187.125506000000001,,0xFD,0xFD
187.126788000000005,,0xFD,0xFD
187.128069000000011,,0xFD,0xFD
187.129351000000014,,0xFD,0xFD
187.130632999999989,,0xFD,0x00
187.131914999999992,,0x00,0x00
187.133256999999986,,0x00,0x00
187.134600000000006,,0x00,0x00
187.135882000000009,,0x00,0x00
187.137164000000013,,0x00,0x00
187.138444999999990,,0x00,0x00
187.139726999999993,,0x00,0xFF
187.141008999999997,,0x84,0xFF
187.142291000000000,,0xFF,0x00
187.143572000000006,,0xFF,0x00
187.144854000000009,,0x00,0x00
187.146136000000013,,0x00,0x00
187.147479000000004,,0x00,0x00
187.148820999999998,,0x00,0x00
187.150103000000001,,0x00,0x00
187.151385000000005,,0x00,0x00
187.152667000000008,,0x00,0x00
187.153948000000014,,0x00,0x00
187.155229999999989,,0x00,0x00
187.156511999999992,,0x00,0x00
187.157792999999998,,0x00,0x00
187.159075000000001,,0x00,0x00
187.160357000000005,,0x00,0x00
187.161639000000008,,0x00,0x00
187.162981000000002,,0x00,0x00
187.164323999999993,,0x00,0x00
187.165605999999997,,0x00,0x00
187.166888000000000,,0x00,0x00
187.168169000000006,,0x00,0x00
187.169451000000009,,0x00,0x00
187.170733000000013,,0x00,0x00
187.172014999999988,,0x00,0x00
187.173295999999993,,0x00,0x00
187.174577999999997,,0x00,0x00
187.175860000000000,,0x00,0x00
187.177202999999992,,0x00,0x00
187.178545000000014,,0x00,0x00
187.179826999999989,,0x00,0x00
187.181108999999992,,0x00,0x00
187.182390999999996,,0x00,0x00
187.183672000000001,,0x00,0x00
187.184954000000005,,0x00,0x00
187.186236000000008,,0x00,0x00
187.187518000000011,,0x00,0x00
187.188798999999989,,0x00,0x00
187.190080999999992,,0x00,0x00
187.191362999999996,,0x00,0x00
187.192705999999987,,0x00,0x00
187.194048000000009,,0x00,0x00
187.195330000000013,,0x00,0x00
187.196611999999988,,0x00,0x00
187.197893999999991,,0x00,0x00
187.199174999999997,,0x00,0x00
187.200457000000000,,0x00,0x00
187.201739000000003,,0x00,0x00
187.203021000000007,,0x00,0x00
187.204302000000013,,0x00,0x00
187.205583999999988,,0x00,0x00
187.206927000000007,,0x00,0x00
187.208269999999999,,0x00,0x00
187.209551000000005,,0x00,0x00
187.210833000000008,,0x00,0x00
187.212115000000011,,0x00,0x00
187.213396999999986,,0x00,0x00
187.214677999999992,,0x00,0x00
187.215959999999995,,0x00,0x00
187.217241999999999,,0x00,0x00
187.218524000000002,,0x00,0x00
187.219805000000008,,0x00,0x00
187.221087000000011,,0x00,0x00
187.222430000000003,,0x00,0x00
187.223772999999994,,0x00,0x00
187.225054000000000,,0x00,0x00
187.226336000000003,,0x00,0x00
187.227618000000007,,0x00,0x00
187.228899000000013,,0x00,0x00
187.230180999999988,,0x00,0x00
187.231462999999991,,0x00,0x00
187.232744999999994,,0x00,0x00
187.234026000000000,,0x00,0x00
187.235308000000003,,0x00,0x00
187.236650999999995,,0x00,0x00
187.237993999999986,,0x00,0x00
187.239274999999992,,0x00,0x00
187.240556999999995,,0x00,0x00
187.241838999999999,,0x00,0x00
187.243121000000002,,0x00,0x00
187.244402000000008,,0x00,0x00
187.245684000000011,,0x00,0x00
187.246965999999986,,0x00,0x00
187.248247999999990,,0x00,0x00
187.249528999999995,,0x00,0x00
187.250810999999999,,0x00,0x00
187.252153999999990,,0x00,0x00
187.253497000000010,,0x00,0x00
187.254777999999988,,0x00,0x00
187.256059999999991,,0x00,0x00
187.257341999999994,,0x00,0x00
187.258623999999998,,0x00,0x00
187.259905000000003,,0x00,0x00
187.261187000000007,,0x00,0x00
187.262469000000010,,0x00,0x00
187.263751000000013,,0x00,0x00
187.265031999999991,,0x00,0x00
187.266375000000011,,0x00,0x00
187.267718000000002,,0x00,0x00
187.269000000000005,,0x00,0x00
187.270281000000011,,0x00,0x00
187.271562999999986,,0x00,0x00
187.272844999999990,,0x00,0x00
187.274126999999993,,0x00,0x00
187.275407999999999,,0x00,0x00
187.276690000000002,,0x00,0x00
187.277972000000005,,0x00,0x00
187.279254000000009,,0x00,0x00
187.280534999999986,,0x00,0x00
187.281878000000006,,0x00,0x00
187.283220999999998,,0x00,0x00
187.284503000000001,,0x00,0x00
187.285784000000007,,0x00,0x00
187.287066000000010,,0x00,0x00
187.288348000000013,,0x00,0x00
187.289628999999991,,0x00,0x00
187.290910999999994,,0x00,0x00
187.292192999999997,,0x00,0x00
187.293475000000001,,0x00,0x00
187.294756000000007,,0x00,0x00
187.296098999999998,,0x00,0x00
187.297441999999990,,0x00,0x00
187.298723999999993,,0x00,0x00
187.300004999999999,,0x00,0x00
187.301287000000002,,0x00,0x00
187.302569000000005,,0x00,0x00
187.303851000000009,,0x00,0x00
187.305131999999986,,0x00,0x00
187.306413999999990,,0x00,0x00
187.307695999999993,,0x00,0x00
187.308977999999996,,0x00,0x00
187.310259000000002,,0x00,0x00
187.311601999999993,,0x00,0x00
187.312945000000013,,0x00,0x00
187.314226999999988,,0x00,0x00
187.315507999999994,,0x00,0x00
187.316789999999997,,0x00,0x00
187.318072000000001,,0x00,0x00
187.319354000000004,,0x00,0x00
187.320635000000010,,0x00,0x00
187.321917000000013,,0x00,0x00
187.323198999999988,,0x00,0x00
187.324480999999992,,0x00,0x00
187.325823000000014,,0x00,0x00
187.327166000000005,,0x00,0x00
187.328448000000009,,0x00,0x00
187.329730000000012,,0x00,0x00
187.331010999999990,,0x00,0x00
187.332292999999993,,0x00,0x00
187.333574999999996,,0x00,0x00
187.334857000000000,,0x00,0x00
187.336138000000005,,0x00,0x00
187.337420000000009,,0x00,0x00
187.338702000000012,,0x00,0x00
187.339983999999987,,0x00,0x00
187.341326000000009,,0x00,0x00
187.342669000000001,,0x00,0x00
187.343951000000004,,0x00,0x00
187.345233000000007,,0x00,0x00
187.346514000000013,,0x00,0x00
187.347795999999988,,0x00,0x00
187.349077999999992,,0x00,0x00
187.350358999999997,,0x00,0x00
187.351641000000001,,0x00,0x00
187.352923000000004,,0x00,0x00
187.354205000000007,,0x00,0x00
187.355547000000001,,0x00,0x00
187.356889999999993,,0x00,0x00
187.358171999999996,,0x00,0x00
187.359453999999999,,0x00,0x00
187.360735000000005,,0x00,0x00
187.362017000000009,,0x00,0x00
187.363299000000012,,0x00,0x00
187.364580999999987,,0x00,0x00
187.365861999999993,,0x00,0x00
187.367143999999996,,0x00,0x00
187.368425999999999,,0x00,0x00
187.369708000000003,,0x00,0x00
187.371049999999997,,0x00,0x00
187.372392999999988,,0x00,0x00
187.373674999999992,,0x00,0x00
187.374956999999995,,0x00,0x00
187.376238000000001,,0x00,0x00
187.377520000000004,,0x00,0x00
187.378802000000007,,0x00,0x00
187.380084000000011,,0x00,0x00
187.381364999999988,,0x00,0x00
187.382646999999992,,0x00,0x00
192.241780000000006,,0x00,0x00
192.258381000000014,,0x00,0x60
192.277728999999994,,0xFE,0x60
192.291828000000010,,0xFE,0x60
192.308551999999992,,0xFE,0x60
192.325276000000002,,0xFE,0x60
192.341998999999987,,0xFE,0x60
192.359150000000000,,0xFE,0x60
192.375507999999996,,0xFE,0x60
192.392231000000010,,0xFE,0x60
192.409016000000008,,0xFF,0x60
192.425739999999990,,0xFE,0x60
192.442463000000004,,0xFE,0x60
192.460162999999994,,0x7E,0x60
192.475972000000013,,0xFE,0x60
192.492817000000002,,0xFE,0x60
192.509479999999996,,0xFF,0x60
192.526264999999995,,0xFE,0x60
192.543415000000010,,0xFE,0x60
192.559773000000007,,0xFE,0x60
192.576495999999992,,0x7E,0x60
192.593220000000002,,0xFE,0x60
192.609944000000013,,0xFE,0x60
192.626849999999990,,0x7E,0x60
192.646016000000003,,0xFE,0x60
192.660114999999990,,0xFE,0x60
192.676898999999992,,0xFE,0x60
192.693623000000002,,0xFF,0x60
192.710347000000013,,0xFE,0x60
192.727131000000014,,0xFE,0x60
192.744221000000010,,0xFE,0x60
192.760579000000007,,0xFE,0x60
192.777301999999992,,0xFE,0x60
192.794086999999990,,0xFF,0x60
192.810811000000001,,0xFE,0x60
192.828632999999996,,0xFE,0x60
192.844319000000013,,0xFE,0x60
192.861103000000014,,0x7E,0x60
192.877888000000013,,0xFE,0x60
192.894611999999995,,0xFE,0x60
192.911335000000008,,0x7E,0x60
192.928485999999992,,0xFE,0x60
192.944905000000006,,0xFE,0x60
192.961567000000002,,0xFE,0x60
192.978291000000013,,0xFE,0x60
192.995014999999995,,0xFE,0x60
193.011921000000001,,0xFE,0x60
193.031392000000011,,0xFE,0x60
193.045246999999989,,0xFE,0x60
193.061970000000002,,0xFE,0x60
193.078694000000013,,0xFF,0x60
193.095479000000012,,0xFE,0x60
193.112568000000010,,0xFE,0x60
193.128926000000007,,0xFE,0x60
193.145648999999992,,0x7E,0x60
193.162433999999990,,0xFE,0x60
193.179158000000001,,0xFE,0x60
193.195881000000014,,0xFE,0x60
193.215229999999991,,0xFE,0x60
193.229389999999995,,0xFE,0x60
193.246113000000008,,0xFE,0x60
193.262898000000007,,0xFE,0x60
193.279621999999989,,0xFE,0x60
193.296712000000014,,0xFE,0x60
193.313130000000001,,0xFF,0x60
193.329854000000012,,0xFE,0x60
193.346576999999996,,0xFE,0x60
193.363361999999995,,0xFF,0x60
193.380086000000006,,0xFE,0x60
193.397908000000001,,0xFE,0x60
193.413593999999989,,0xFF,0x60
193.430318000000000,,0xFE,0x60
193.447162999999989,,0xFE,0x60
193.463826000000012,,0xFE,0x60
193.480548999999996,,0x7E,0x60
193.497760999999997,,0xFE,0x60
193.514118999999994,,0xFE,0x60
193.530780999999990,,0xFE,0x60
193.547565999999989,,0xFE,0x60
193.564290000000000,,0xFE,0x60
193.582234000000000,,0xFE,0x60
193.597798000000012,,0xFE,0x60
193.614521999999994,,0xFE,0x60
193.631245000000007,,0xFE,0x60
193.648090999999994,,0xFF,0x60
193.664815000000004,,0xFE,0x60
193.681842999999986,,0x7E,0x60
193.698262000000000,,0xFF,0x60
193.715046999999998,,0xFE,0x60
193.731708999999995,,0xFE,0x60
193.748555000000010,,0xFF,0x60
193.765218000000004,,0xFE,0x60
193.782917999999995,,0xFE,0x60
193.798665000000000,,0xFE,0x60
193.815449000000001,,0x7E,0x60
193.832234000000000,,0xFE,0x60
193.848958000000010,,0xFE,0x60
193.865986999999990,,0xFE,0x60
193.882405000000006,,0xFE,0x60
193.899128999999988,,0xFE,0x60
193.916034999999994,,0xFE,0x60
193.932637000000000,,0xFF,0x60
193.949361000000010,,0xFE,0x60
193.967975999999993,,0xFE,0x60
193.982868999999994,,0xFF,0x60
193.999593000000004,,0x60,0x60
194.016315999999989,,0xFE,0x60
194.050191000000012,,0x60,0x60
194.066548000000012,,0x70,0x60
194.083271999999994,,0x60,0x60
194.099995000000007,,0x60,0x60
194.116840999999994,,0x60,0x60
194.133503999999988,,0x60,0x60
194.151996999999994,,0x20,0x60
194.167012000000000,,0x60,0x60
194.183796999999998,,0x60,0x60
194.200458999999995,,0x00,0x60
194.217183000000006,,0x00,0x60
194.233906999999988,,0x00,0x00
194.251057000000003,,0x00,0x00
194.267415000000000,,0x00,0x00
194.284139000000010,,0x00,0x00
194.300861999999995,,0x00,0x00
194.317708000000010,,0x00,0x00
194.336017999999996,,0x00,0x00
194.351093999999989,,0x00,0x00
194.367878999999988,,0xFE,0x00
198.335896999999989,,0x7E,0x00
198.352681999999987,,0x72,0x62
198.369405999999998,,0x62,0x62
198.402852999999993,,0x62,0x62
198.419637999999992,,0x62,0x62
198.436361000000005,,0x22,0x62
198.453084999999987,,0x61,0x62
198.469869999999986,,0x62,0x62
198.487508999999989,,0x62,0x62
198.503438999999986,,0x61,0x62
198.520102000000009,,0x62,0x62
198.536886000000010,,0x72,0x62
198.553671000000008,,0x63,0x62
198.570699999999988,,0x62,0x62
198.587056999999987,,0x00,0x00
198.603780999999998,,0x00,0x00
198.620504000000011,,0x00,0x00
198.637410999999986,,0x00,0x00
198.654012999999992,,0x00,0x00
198.673238999999995,,0x00,0x00
198.687459999999987,,0x00,0x00
198.704183999999998,,0x00,0x00
198.720967999999999,,0x00,0x00
242.083221000000009,,0x00,0x00
242.100005000000010,,0xFE,0x62
242.116728999999992,,0xFE,0x62
242.133452000000005,,0x7E,0x62
242.150237000000004,,0xFE,0x62
242.166960999999986,,0xFE,0x62
242.183744999999988,,0x7E,0x62
242.200468999999998,,0xFE,0x62
242.217253999999997,,0xFE,0x62
242.233977000000010,,0xFE,0x62
242.250762000000009,,0xFE,0x62
242.267547000000008,,0xFE,0x62
242.284575999999987,,0xFE,0x62
242.300932999999986,,0xFF,0x62
242.317656999999997,,0xFE,0x62
242.334501999999986,,0xFE,0x62
242.351165000000009,,0xFF,0x62
242.367950000000008,,0xFE,0x62
242.384672999999992,,0xFE,0x62
242.401397000000003,,0xFE,0x62
242.418182000000002,,0xFE,0x62
242.434904999999986,,0xFE,0x62
242.451628999999997,,0xFE,0x62
242.468473999999986,,0x7E,0x62
242.487639999999999,,0xFE,0x62
242.501800000000003,,0xFE,0x62
242.518522999999988,,0xFE,0x62
242.535307999999986,,0xFF,0x62
242.552031999999997,,0xFE,0x62
242.568755000000010,,0xFE,0x62
242.585540000000009,,0xFF,0x62
242.602263999999991,,0xFE,0x62
242.619109000000009,,0xFE,0x62
242.635772000000003,,0xFE,0x62
242.652557000000002,,0xFE,0x62
242.669279999999986,,0xFE,0x62
242.686370000000011,,0xFF,0x62
242.702850000000012,,0xFE,0x62
242.719572999999997,,0xFE,0x62
242.736235999999991,,0xFE,0x62
242.753019999999992,,0xFE,0x62
242.769744000000003,,0xFE,0x62
242.786529000000002,,0x62,0x62
242.803251999999986,,0xFE,0x62
242.836700000000008,,0x62,0x62
242.853422999999992,,0x72,0x62
242.870269000000008,,0x63,0x62
242.886932000000002,,0x62,0x62
242.906158000000005,,0x62,0x62
242.920378999999997,,0x62,0x62
242.937102000000010,,0x62,0x62
242.953825999999992,,0x62,0x62
242.970550000000003,,0x62,0x62
242.987334000000004,,0x00,0x62
243.004057999999986,,0x00,0x62
243.020781999999997,,0x00,0x00
243.037565999999998,,0x00,0x00
243.054290000000009,,0x00,0x00
243.071197000000012,,0x00,0x00
243.087797999999992,,0x00,0x00
243.104887999999988,,0x00,0x00
243.121246000000014,,0x00,0x00
243.138029999999986,,0x00,0x00
243.154815000000013,,0xFF,0x00
244.723541000000012,,0xFE,0x00
244.728607000000011,,0x62,0x62
244.745391000000012,,0xFE,0x62
244.778899999999993,,0x62,0x62
244.795683999999994,,0x72,0x62
244.812346999999988,,0x62,0x62
244.829070000000002,,0x62,0x62
244.845794000000012,,0x62,0x62
244.862579000000011,,0x62,0x62
244.879424000000000,,0x62,0x62
244.896026000000006,,0x60,0x62
244.912811000000005,,0x62,0x62
244.929533999999990,,0x62,0x62
244.946258000000000,,0x63,0x62
244.963042999999999,,0x00,0x00
244.982208000000014,,0x00,0x00
244.996429000000006,,0x00,0x00
245.013152999999988,,0x00,0x00
245.029876000000002,,0x00,0x00
245.046661000000000,,0x00,0x00
245.063384000000013,,0x00,0x00
245.080107999999996,,0x00,0x00
245.096892999999994,,0x00,0x00
245.147124999999988,,0x00,0x00
245.163970000000006,,0xFD,0x00
245.214141000000012,,0xFD,0x00
245.215484000000004,,0xFF,0xFD
245.216766000000007,,0xFD,0xFD
245.218048000000010,,0xFD,0xFD
245.219328999999988,,0xFD,0xFD
245.220610999999991,,0xFF,0xFD
245.221892999999994,,0xFD,0xFD
245.223174999999998,,0xFD,0xFD
245.224516999999992,,0xFD,0xFD
245.225860000000011,,0xFF,0x04
245.227141999999986,,0xD9,0x20
245.228423999999990,,0x19,0x3E
245.229704999999996,,0x7B,0x5E
245.230986999999999,,0x9F,0x80
245.232269000000002,,0xE5,0xA4
245.233551000000006,,0x2D,0xCA
245.234832000000011,,0x7F,0xF2
245.236113999999986,,0xC3,0x1B
245.237457000000006,,0x10,0x46
245.238739000000010,,0x5F,0xFD
245.240019999999987,,0xFD,0xFD
245.241301999999990,,0xFE,0xFD
245.242583999999994,,0xFD,0xFD
245.243865000000000,,0xFD,0xFD
245.245147000000003,,0xFD,0xFD
245.246489999999994,,0xFE,0xFD
245.247833000000014,,0xFD,0xFD
245.249113999999992,,0x91,0xFD
245.250395999999995,,0x84,0x83
245.251677999999998,,0x83,0x91
245.252960000000002,,0x50,0x80
245.254241000000007,,0x40,0x82
245.255523000000011,,0x9A,0x8E
245.256805000000014,,0x87,0x8D
245.258086999999989,,0x50,0x50
245.259367999999995,,0xC9,0x00
245.260710999999986,,0x80,0x00
245.262054000000006,,0x83,0x00
245.263336000000010,,0x04,0x00
245.264616999999987,,0xC3,0x06
245.265898999999990,,0x4E,0x0E
245.267180999999994,,0x31,0xB0
245.268462999999997,,0x68,0x80
245.269744000000003,,0xFF,0xA5
245.271026000000006,,0x00,0x24
245.272308000000010,,0x00,0x33
245.273590000000013,,0x83,0xFF
245.274870999999990,,0x01,0x0E
245.276214000000010,,0x3F,0x00
245.277557000000002,,0x49,0xF9
245.278839000000005,,0x00,0x2A
245.280120000000011,,0x18,0x00
245.281402000000014,,0x1C,0x08
245.282683999999989,,0x03,0x03
245.283965999999992,,0x81,0x5A
245.285246999999998,,0x6E,0x8A
245.286529000000002,,0x87,0x6D
245.287811000000005,,0x69,0x65
245.289092000000011,,0xEA,0x5F
245.290435000000002,,0x78,0xEA
245.291777999999994,,0x0D,0x78
245.293059999999997,,0xB6,0x09
245.294342000000000,,0xA8,0xB8
245.295623000000006,,0x76,0x07
245.296905000000010,,0x93,0x67
245.298187000000013,,0x68,0x73
245.299467999999990,,0x77,0x68
245.300749999999994,,0x75,0x82
245.302031999999997,,0x2F,0x68
245.303314000000000,,0x69,0x1C
245.304595000000006,,0x98,0x67
245.305937999999998,,0x71,0x00
245.307280999999989,,0x27,0x66
245.308562999999992,,0x60,0xB2
245.309843999999998,,0x26,0x54
245.311126000000002,,0x1C,0x75
245.312408000000005,,0x0B,0x0F
245.313690000000008,,0x14,0x0A
245.314971000000014,,0x14,0x0F
245.316252999999989,,0x5D,0x14
245.317534999999992,,0x01,0x55
245.318816999999996,,0x35,0x00
245.320158999999990,,0x80,0xF9
245.321502000000010,,0xF5,0x00
245.322784000000013,,0x00,0x9E
245.324065999999988,,0xC0,0x00
245.325346999999994,,0x01,0x94
245.326628999999997,,0x19,0x00
245.327911000000000,,0x01,0xED
245.329193000000004,,0x37,0x01
245.330474000000009,,0x6A,0x0C
245.331756000000013,,0x01,0xB0
245.333037999999988,,0x34,0x00
245.334319999999991,,0x32,0x22
245.335662000000013,,0x00,0x00
245.337005000000005,,0x1D,0x00
245.338287000000008,,0x03,0x14
245.339569000000012,,0x03,0x14
245.340849999999989,,0x60,0x2D
245.342131999999992,,0x3E,0x0A
245.343413999999996,,0x3B,0x2D
245.344695999999999,,0x13,0x34
245.345977000000005,,0xFA,0x00
245.347259000000008,,0x7C,0xAC
245.348541000000012,,0x0B,0x15
245.349884000000003,,0xB6,0x00
245.351225999999997,,0xC8,0x05
245.352508000000000,,0x6D,0xD9
245.353790000000004,,0xAA,0x02
245.355072000000007,,0x6B,0xB1
245.356353000000013,,0xBE,0x03
245.357634999999988,,0x6F,0x01
245.358916999999991,,0x96,0x02
245.360197999999997,,0x6A,0xC6
245.361480000000000,,0xB3,0x03
245.362762000000004,,0x68,0x9B
245.364044000000007,,0x96,0x01
245.365386000000001,,0x31,0xC8
245.366728999999992,,0x91,0x6D
245.368010999999996,,0x23,0x8E
245.369292999999999,,0x0A,0x23
245.370574000000005,,0x05,0x28
245.371856000000008,,0x07,0x19
245.373138000000012,,0x57,0x00
245.374419999999986,,0x01,0x0D
245.375700999999992,,0xB4,0x00
245.376982999999996,,0x00,0x22
245.378264999999999,,0xBD,0x00
245.379607999999990,,0x00,0x14
245.380950000000013,,0xD3,0x00
245.382231999999988,,0x00,0x14
245.383513999999991,,0xC7,0x00
245.384795999999994,,0x00,0x18
245.386077000000000,,0xFF,0x00
245.387359000000004,,0x39,0x16
245.388641000000007,,0x01,0x80
245.389923000000010,,0x13,0x00
245.391203999999988,,0x8E,0x61
245.392485999999991,,0x00,0x21
245.393767999999994,,0x05,0x00
245.395111000000014,,0x04,0x15
245.396453000000008,,0xFF,0x15
245.397735000000011,,0x5D,0xBE
245.399016999999986,,0x58,0x0A
245.400298999999990,,0x9D,0x27
245.401579999999996,,0xD9,0x32
245.402861999999999,,0xEC,0x00
245.404144000000002,,0x78,0xEA
245.405426000000006,,0x09,0x78
245.406707000000011,,0xF8,0x00
245.407988999999986,,0x07,0x8C
245.409332000000006,,0x67,0x61
245.410674999999998,,0x8A,0x00
245.411956000000004,,0x78,0x00
245.413238000000007,,0xBF,0x00
245.414520000000010,,0x67,0x00
245.415802000000014,,0xB4,0x00
245.417082999999991,,0x77,0x00
245.418364999999994,,0xAF,0x00
245.419646999999998,,0x67,0x00
245.420928000000004,,0xE3,0x00
245.422210000000007,,0x01,0x00
245.423492000000010,,0x9E,0xA4
245.424835000000002,,0x0A,0x7F
245.426176999999996,,0x0F,0x23
245.427458999999999,,0x0A,0x1E
245.428741000000002,,0x06,0x14
245.430023000000006,,0x55,0x00
245.431304000000011,,0x81,0x21
245.432585999999986,,0x1B,0x00
245.433867999999990,,0x00,0x61
245.435149999999993,,0xE2,0x00
245.436430999999999,,0x01,0x41
245.437713000000002,,0x01,0x00
245.439055999999994,,0x00,0x3B
245.440399000000014,,0x82,0x00
245.441679999999991,,0x00,0x41
245.442961999999994,,0x98,0x00
245.444243999999998,,0x68,0x43
245.445526000000001,,0x00,0xA5
245.446807000000007,,0xFD,0x00
245.448089000000010,,0x1D,0x1B
245.449371000000014,,0x00,0x00
245.450652999999988,,0x17,0x00
245.451933999999994,,0x17,0x00
245.453215999999998,,0x2F,0x00
245.454558999999989,,0x18,0xFF
245.455902000000009,,0x56,0x21
245.457182999999986,,0x62,0x27
245.458464999999990,,0x5B,0x62
245.459746999999993,,0xEA,0x00
245.461028999999996,,0x78,0xAC
245.462310000000002,,0x09,0x15
245.463592000000006,,0x5E,0x00
245.464874000000009,,0xED,0x03
245.466154999999986,,0xE4,0x05
245.467436999999990,,0x3F,0x01
245.468780000000010,,0x66,0x1B
245.470123000000001,,0xA0,0x01
245.471405000000004,,0x64,0x1D
245.472686000000010,,0x16,0x01
245.473968000000013,,0x66,0x01
245.475249999999988,,0x32,0x01
245.476530999999994,,0x64,0x62
245.477812999999998,,0x33,0x00
245.479095000000001,,0x77,0xB4
245.480377000000004,,0xE4,0xD1
245.481658000000010,,0x1E,0x2D
245.482940000000013,,0x1C,0x23
245.484283000000005,,0x1F,0x1E
245.485625999999996,,0x0A,0x1E
245.486907000000002,,0x55,0x00
245.488189000000006,,0x00,0x09
245.489471000000009,,0xFE,0x00
245.490753000000012,,0x00,0x1B
245.492033999999990,,0xE1,0x00
245.493315999999993,,0x00,0x11
245.494597999999996,,0x97,0x00
245.495880000000000,,0x01,0x0B
245.497161000000006,,0x9B,0x00
245.498503999999997,,0x00,0x12
245.499846999999988,,0xE8,0x00
245.501128999999992,,0x00,0x0C
245.502409999999998,,0x00,0x24
245.503692000000001,,0x00,0x00
245.504974000000004,,0x00,0x1E
245.506256000000008,,0x00,0x00
245.507537000000013,,0x00,0x00
245.508818999999988,,0x00,0x00
245.510100999999992,,0x00,0x02
245.511382999999995,,0x00,0xFF
245.512664000000001,,0x00,0x10
245.514006999999992,,0x00,0x00
245.515350000000012,,0x00,0x00
245.516631999999987,,0x00,0x00
245.517912999999993,,0x00,0xAC
245.519194999999996,,0x00,0x15
245.520477000000000,,0x00,0x00
245.521759000000003,,0x00,0x03
245.523040000000009,,0x00,0x0C
245.524322000000012,,0x00,0x00
245.525603999999987,,0x00,0xE6
245.526885999999990,,0x00,0x00
245.528228000000013,,0x00,0xAA
245.529571000000004,,0x00,0x00
245.530853000000008,,0x00,0xFA
245.532135000000011,,0x00,0x00
245.533415999999988,,0x00,0xC4
245.534697999999992,,0x00,0x00
245.535979999999995,,0x00,0x6E
245.537261000000001,,0x00,0x60
245.538543000000004,,0x00,0xDA
245.539825000000008,,0x00,0x23
245.541107000000011,,0x00,0x00
245.542387999999988,,0x00,0x00
245.543731000000008,,0x00,0x00
245.545074000000000,,0x00,0x0B
245.546356000000003,,0x00,0x00
245.547637000000009,,0x00,0x1E
245.548919000000012,,0x00,0x00
245.550200999999987,,0x00,0x10
245.551482999999990,,0x00,0x00
245.552763999999996,,0x00,0x0E
245.554046000000000,,0x00,0x00
245.555328000000003,,0x00,0x14
245.556610000000006,,0x00,0x00
245.557952000000000,,0x00,0x0F
245.559294999999992,,0x00,0x33
245.560576999999995,,0x00,0x01
245.561858999999998,,0x00,0x05
245.563140000000004,,0x00,0x26
245.564422000000008,,0x00,0x00
245.565704000000011,,0x00,0x14
245.566986000000014,,0x00,0x14
245.568266999999992,,0x00,0x2D
245.569548999999995,,0x00,0x35
245.570830999999998,,0x00,0x7B
245.572113000000002,,0x00,0x6D
245.573454999999996,,0x00,0x07
245.574797999999987,,0x00,0xEA
245.576079999999990,,0x00,0x78
245.577361999999994,,0x00,0x09
245.578643000000000,,0x00,0x5E
245.579925000000003,,0x00,0xED
245.581207000000006,,0x00,0x67
245.582489000000010,,0x00,0x50
245.583769999999987,,0x00,0x68
245.585051999999990,,0x00,0x54
245.586333999999994,,0x00,0x67
245.587677000000014,,0x00,0xA3
245.589019000000008,,0x00,0x69
245.590301000000011,,0x00,0x2A
245.591583000000014,,0x00,0x68
245.592864999999989,,0x00,0x5D
245.594145999999995,,0x00,0x5B
245.595427999999998,,0x00,0x29
245.596710000000002,,0x00,0x0F
245.597991000000007,,0x00,0x14
245.599273000000011,,0x00,0x0A
245.600555000000014,,0x00,0x0F
245.601836999999989,,0x00,0x55
245.603179000000011,,0x00,0x01
245.604522000000003,,0x00,0x05
245.605804000000006,,0x00,0x00
245.607086000000010,,0x00,0xD1
245.608366999999987,,0x00,0x00
245.609648999999990,,0x00,0x9A
245.610930999999994,,0x00,0x00
245.612212999999997,,0x00,0xC9
245.613494000000003,,0x00,0x00
245.614776000000006,,0x83,0xC7
245.616058000000010,,0x91,0x83
245.617401000000001,,0x80,0x91
245.618742999999995,,0x42,0x80
245.620024999999998,,0x86,0x82
245.621307000000002,,0x8F,0x8E
245.622589000000005,,0x50,0x8D
245.623870000000011,,0x00,0x50
245.625152000000014,,0x00,0x00
245.626433999999989,,0x00,0x00
245.627715999999992,,0x00,0x00
245.628996999999998,,0xC3,0x00
245.630279000000002,,0x99,0x91
245.631561000000005,,0x80,0x84
245.632903999999996,,0x82,0x83
245.634245999999990,,0xCE,0x50
245.635527999999994,,0x8D,0x80
245.636809999999997,,0x50,0x92
245.638092000000000,,0x00,0x87
245.639373000000006,,0x00,0x50
245.640655000000010,,0x00,0x89
245.641937000000013,,0x00,0x80
245.643218999999988,,0x83,0x82
245.644499999999994,,0xD1,0x83
245.645781999999997,,0x80,0x91
245.647124999999988,,0x82,0x80
245.648468000000008,,0x8E,0x82
245.649749000000014,,0xCD,0x8E
245.651030999999989,,0x58,0x8D
245.652312999999992,,0x00,0x50
245.653594999999996,,0x00,0x00
245.654876000000002,,0x00,0x00
245.656158000000005,,0x00,0x00
245.657440000000008,,0x83,0x00
245.658721000000014,,0x91,0x91
245.660002999999989,,0x80,0x84
245.661284999999992,,0x83,0x83
245.662628000000012,,0x8E,0x50
245.663971000000004,,0x8D,0x80
245.665252000000010,,0x68,0x92
245.666534000000013,,0x00,0x87
245.667815999999988,,0x00,0x50
245.669096999999994,,0x00,0x89
245.670378999999997,,0x00,0x80
245.671661000000000,,0x00,0x82
245.672943000000004,,0x00,0x91
245.674224000000009,,0x00,0x84
245.675506000000013,,0x00,0x83
245.676849000000004,,0x00,0x50
245.678191999999996,,0x00,0x80
245.679473000000002,,0x00,0x92
245.680755000000005,,0x00,0x87
245.682037000000008,,0x00,0x50
245.683319000000012,,0x00,0x89
245.684599999999989,,0x00,0x80
245.685881999999992,,0x00,0x82
245.687163999999996,,0x00,0x83
245.688445999999999,,0x00,0x91
245.689727000000005,,0x00,0x80
245.691009000000008,,0x00,0x82
245.692352000000000,,0x00,0x8E
245.693694999999991,,0x00,0x8D
245.694975999999997,,0x00,0x50
245.696258000000000,,0x00,0x00
245.697540000000004,,0x00,0x00
245.698822000000007,,0x00,0x00
245.700103000000013,,0xCC,0x00
245.701384999999988,,0x86,0xAD
245.702666999999991,,0x96,0xE7
245.703948999999994,,0x93,0xE7
245.705230000000000,,0xC6,0xE7
245.706572999999992,,0x8E,0x9B
245.707916000000012,,0x50,0x50
245.709197999999986,,0x50,0x09
245.710478999999992,,0x70,0x0B
245.711760999999996,,0x58,0x09
245.713042999999999,,0x50,0x02
245.714325000000002,,0x82,0x00
245.715606000000008,,0x82,0x82
245.716888000000012,,0x83,0x87
245.718169999999986,,0x86,0x80
245.719451999999990,,0x9A,0x91
245.720732999999996,,0x86,0x8C
245.722075999999987,,0x8F,0x80
245.723419000000007,,0x8D,0x8D
245.724700000000013,,0x8D,0x83
245.725981999999988,,0x80,0x84
245.727263999999991,,0x50,0x91
245.728545999999994,,0xE3,0x50
245.729827000000000,,0xA7,0x86
245.731109000000004,,0xB0,0x8E
245.732391000000007,,0xA3,0x8B
245.733673000000010,,0xAA,0x83
245.734953999999988,,0xE3,0x94
245.736297000000008,,0xB4,0x82
245.737639999999999,,0xAE,0x8A
245.738922000000002,,0xE3,0x50
245.740203000000008,,0x80,0x50
245.741485000000011,,0x58,0x50
245.742766999999986,,0xAB,0x50
245.744048999999990,,0xAB,0x91
245.745329999999996,,0xE3,0x80
245.746611999999999,,0x8F,0x93
245.747894000000002,,0x97,0x93
245.749176000000006,,0x8D,0x80
245.750457000000011,,0xCA,0x93
245.751800000000003,,0xA0,0x80
245.753142999999994,,0xAC,0x50
245.754424999999998,,0xAE,0x50
245.755706000000004,,0x30,0x50
245.756988000000007,,0x00,0x50
245.758270000000010,,0x00,0x8F
245.759552000000014,,0x00,0x88
245.760832999999991,,0x00,0x83
245.762114999999994,,0x00,0x86
245.763396999999998,,0x00,0x84
245.764679000000001,,0x00,0x98
245.766020999999995,,0x00,0x50
245.767363999999986,,0x00,0x50
245.768645999999990,,0x00,0x50
245.769927999999993,,0x00,0x50
245.771208999999999,,0x00,0x50
245.772491000000002,,0x00,0x8C
245.773773000000006,,0x00,0x80
245.775055000000009,,0x00,0x86
245.776335999999986,,0x00,0x8C
245.777617999999990,,0x00,0x80
245.778899999999993,,0x00,0x91
245.780180999999999,,0x00,0x50
245.781523999999990,,0x00,0x50
245.782867000000010,,0x00,0x50
245.784149000000014,,0x00,0x50
245.785429999999991,,0x08,0x50
245.786711999999994,,0x88,0xFF
245.787993999999998,,0x06,0x9F
245.789336999999989,,0xFD,0x07
245.790617999999995,,0xFD,0xFD
245.791899999999998,,0xFD,0xFD
245.793182000000002,,0xFE,0xFD
245.794464000000005,,0xFD,0xFD
245.795745000000011,,0xFD,0x00
245.797088000000002,,0x00,0x00
245.798430999999994,,0x00,0x00
245.799712999999997,,0x00,0x00
245.800994000000003,,0x00,0x00
245.802276000000006,,0x00,0x00
245.803558000000010,,0x00,0x00
245.804840000000013,,0x00,0xFF
245.806120999999990,,0x18,0xFF
245.807402999999994,,0xFF,0x00
245.808684999999997,,0xFF,0x00
245.809967000000000,,0x00,0x00
245.811308999999994,,0x00,0x00
245.812652000000014,,0x00,0x00
245.813933999999989,,0x00,0x00
245.815215999999992,,0x00,0x00
245.816496999999998,,0x00,0x00
245.817779000000002,,0x00,0x00
245.819061000000005,,0x00,0x00
245.820343000000008,,0x00,0x00
245.821624000000014,,0x00,0x00
245.822905999999989,,0x00,0x00
245.824187999999992,,0x00,0x00
245.825469999999996,,0x00,0x00
245.826811999999990,,0x00,0x00
245.828155000000010,,0x00,0x00
245.829437000000013,,0x00,0x00
245.830718999999988,,0x00,0x00
245.831999999999994,,0x00,0x00
245.833281999999997,,0x00,0x00
245.834564000000000,,0x00,0x00
245.835846000000004,,0x00,0x00
245.837127000000010,,0x00,0x00
245.838409000000013,,0x00,0x00
245.839690999999988,,0x00,0x00
245.841034000000008,,0x00,0x00
245.842376000000002,,0x00,0x00
245.843658000000005,,0x00,0x00
245.844940000000008,,0x00,0x00
245.846222000000012,,0x00,0x00
245.847502999999989,,0x00,0x00
245.848784999999992,,0x00,0x00
245.850066999999996,,0x00,0x00
245.851348000000002,,0x00,0x00
245.852630000000005,,0x00,0x00
245.853912000000008,,0x00,0x00
245.855194000000012,,0x00,0x00
245.856536000000006,,0x00,0x00
245.857878999999997,,0x00,0x00
245.859161000000000,,0x00,0x00
245.860443000000004,,0x00,0x00
245.861724000000009,,0x00,0x00
245.863006000000013,,0x00,0x00
245.864287999999988,,0x00,0x00
245.865569999999991,,0x00,0x00
245.866850999999997,,0x00,0x00
245.868133000000000,,0x00,0x00
245.869415000000004,,0x00,0x00
245.870757999999995,,0x00,0x00
245.872099999999989,,0x00,0x00
245.873381999999992,,0x00,0x00
245.874663999999996,,0x00,0x00
245.875945999999999,,0x00,0x00
245.877227000000005,,0x00,0x00
245.878509000000008,,0x00,0x00
245.879791000000012,,0x00,0x00
245.881072999999986,,0x00,0x00
245.882353999999992,,0x00,0x00
245.883635999999996,,0x00,0x00
245.884917999999999,,0x00,0x00
245.886260999999990,,0x00,0x00
245.887603000000013,,0x00,0x00
245.888884999999988,,0x00,0x00
245.890166999999991,,0x00,0x00
245.891448999999994,,0x00,0x00
245.892730000000000,,0x00,0x00
245.894012000000004,,0x00,0x00
245.895294000000007,,0x00,0x00
245.896576000000010,,0x00,0x00
245.897856999999988,,0x00,0x00
245.899138999999991,,0x00,0x00
245.900482000000011,,0x00,0x00
245.901825000000002,,0x00,0x00
245.903106000000008,,0x00,0x00
245.904388000000012,,0x00,0x00
245.905669999999986,,0x00,0x00
245.906951999999990,,0x00,0x00
245.908232999999996,,0x00,0x00
245.909514999999999,,0x00,0x00
245.910797000000002,,0x00,0x00
245.912078000000008,,0x00,0x00
245.913360000000011,,0x00,0x00
245.914641999999986,,0x00,0x00
245.915985000000006,,0x00,0x00
245.917327000000000,,0x00,0x00
245.918609000000004,,0x00,0x00
245.919891000000007,,0x00,0x00
245.921173000000010,,0x00,0x00
245.922453999999988,,0x00,0x00
245.923735999999991,,0x00,0x00
245.925017999999994,,0x00,0x00
245.926299999999998,,0x00,0x00
245.927581000000004,,0x00,0x00
245.928863000000007,,0x00,0x00
245.930205999999998,,0x00,0x00
245.931548999999990,,0x00,0x00
245.932829999999996,,0x00,0x00
245.934111999999999,,0x00,0x00
245.935394000000002,,0x00,0x00
245.936676000000006,,0x00,0x00
245.937957000000011,,0x00,0x00
245.939238999999986,,0x00,0x00
245.940520999999990,,0x00,0x00
245.941802999999993,,0x00,0x00
245.943083999999999,,0x00,0x00
245.944366000000002,,0x00,0x00
245.945708999999994,,0x00,0x00
245.947052000000014,,0x00,0x00
245.948332999999991,,0x00,0x00
245.949614999999994,,0x00,0x00
245.950896999999998,,0x00,0x00
245.952179000000001,,0x00,0x00
245.953460000000007,,0x00,0x00
245.954742000000010,,0x00,0x00
245.956024000000014,,0x00,0x00
245.957305999999988,,0x00,0x00
245.958586999999994,,0x00,0x00
245.959930000000014,,0x00,0x00
245.961273000000006,,0x00,0x00
245.962555000000009,,0x00,0x00
245.963835999999986,,0x00,0x00
245.965117999999990,,0x00,0x00
245.966399999999993,,0x00,0x00
245.967681999999996,,0x00,0x00
245.968963000000002,,0x00,0x00
245.970245000000006,,0x00,0x00
245.971527000000009,,0x00,0x00
245.972807999999986,,0x00,0x00
245.974089999999990,,0x00,0x00
245.975433000000010,,0x00,0x00
245.976776000000001,,0x00,0x00
245.978057000000007,,0x00,0x00
245.979339000000010,,0x00,0x00
245.980621000000014,,0x00,0x00
245.981902999999988,,0x00,0x00
245.983183999999994,,0x00,0x00
245.984465999999998,,0x00,0x00
245.985748000000001,,0x00,0x00
245.987030000000004,,0x00,0x00
245.988311000000010,,0x00,0x00
245.989654000000002,,0x00,0x00
245.990996999999993,,0x00,0x00
245.992278999999996,,0x00,0x00
245.993560000000002,,0x00,0x00
245.994842000000006,,0x00,0x00
245.996124000000009,,0x00,0x00
245.997406000000012,,0x00,0x00
245.998686999999990,,0x00,0x00
245.999968999999993,,0x00,0x00
246.001250999999996,,0x00,0x00
246.002533000000000,,0x00,0x00
246.003814000000006,,0x00,0x00
246.005156999999997,,0x00,0x00
246.006499999999988,,0x00,0x00
246.007781999999992,,0x00,0x00
246.009062999999998,,0x00,0x00
246.010345000000001,,0x00,0x00
246.011627000000004,,0x00,0x00
246.012909000000008,,0x00,0x00
246.014190000000013,,0x00,0x00
246.015471999999988,,0x00,0x00
246.016753999999992,,0x00,0x00
246.018035999999995,,0x00,0x00
246.019377999999989,,0x00,0x00
246.020721000000009,,0x00,0x00
246.022003000000012,,0x00,0x00
246.023284999999987,,0x00,0x00
246.024565999999993,,0x00,0x00
246.025847999999996,,0x00,0x00
246.027130000000000,,0x00,0x00
246.028411000000006,,0x00,0x00
246.029693000000009,,0x00,0x00
246.030975000000012,,0x00,0x00
246.032256999999987,,0x00,0x00
246.033537999999993,,0x00,0x00
246.034881000000013,,0x00,0x00
246.036224000000004,,0x00,0x00
246.037506000000008,,0x00,0x00
246.038787000000013,,0x00,0x00
246.040068999999988,,0x00,0x00
246.041350999999992,,0x00,0x00
246.042632999999995,,0x00,0x00
246.043914000000001,,0x00,0x00
246.045196000000004,,0x00,0x00
246.046478000000008,,0x00,0x00
246.047760000000011,,0x00,0x00
250.571808000000004,,0x00,0x00
250.588531999999987,,0x00,0x60
250.605255000000000,,0x7E,0x60
250.622039999999998,,0xFE,0x60
250.638764000000009,,0xFE,0x60
250.655854000000005,,0xFE,0x60
250.672271999999992,,0xFE,0x60
250.688996000000003,,0xFE,0x60
250.705718999999988,,0xFE,0x60
250.722503999999986,,0xFF,0x60
250.740326000000010,,0xFE,0x60
250.756011999999998,,0xFE,0x60
250.772796999999997,,0xFF,0x60
250.789521000000008,,0xFE,0x60
250.806305000000009,,0xFE,0x60
250.822968000000003,,0xFF,0x60
250.840118999999987,,0xFE,0x60
250.856475999999986,,0xFE,0x60
250.873199999999997,,0xFE,0x60
250.890046000000012,,0xFE,0x60
250.906768999999997,,0xFE,0x60
250.923431999999991,,0xFE,0x60
250.942779999999999,,0xFF,0x60
250.956878999999986,,0xFE,0x60
250.973602999999997,,0xFE,0x60
250.990386999999998,,0xFE,0x60
251.007111000000009,,0xFF,0x60
251.024201000000005,,0xFE,0x60
251.040558000000004,,0xFE,0x60
251.057343000000003,,0xFF,0x60
251.074067000000014,,0xFE,0x60
251.090789999999998,,0xFE,0x60
251.107574999999997,,0xFE,0x60
251.125274999999988,,0xFE,0x60
251.141083000000009,,0xFE,0x60
251.157928999999996,,0xFE,0x60
251.174590999999992,,0x7E,0x60
251.191375999999991,,0xFE,0x60
251.208404999999999,,0xFF,0x60
251.224884000000003,,0xFE,0x60
251.241546999999997,,0xFE,0x60
251.258271000000008,,0xFE,0x60
251.275115999999997,,0xFE,0x60
251.291840000000008,,0xFF,0x60
251.311126999999999,,0xFE,0x60
251.325225999999986,,0xFE,0x60
251.341949999999997,,0xFF,0x60
251.358674000000008,,0xFE,0x60
251.375458000000009,,0xFE,0x60
251.392181999999991,,0xFE,0x60
251.409271999999987,,0xFE,0x60
251.425690000000003,,0xFE,0x60
251.442414000000014,,0xFE,0x60
251.459136999999998,,0xFE,0x60
251.475921999999997,,0xFE,0x60
251.493743999999992,,0xFE,0x60
251.509430000000009,,0xFE,0x60
251.526153999999991,,0xFF,0x60
251.543000000000006,,0xFE,0x60
251.559662000000003,,0xFE,0x60
251.576447000000002,,0xFF,0x60
251.593476000000010,,0xFE,0x60
251.609955000000014,,0xFE,0x60
251.626618000000008,,0xFF,0x60
251.643403000000006,,0xFE,0x60
251.660187000000008,,0xFE,0x60
251.676910999999990,,0xFE,0x60
251.696503000000007,,0xFE,0x60
251.710296999999997,,0xFE,0x60
251.727021000000008,,0xFE,0x60
251.743805000000009,,0xFE,0x60
251.760528999999991,,0xFF,0x60
251.777618999999987,,0xFE,0x60
251.794037000000003,,0xFE,0x60
251.810761000000014,,0xFF,0x60
251.827484999999996,,0xFE,0x60
251.844268999999997,,0xFE,0x60
251.860993000000008,,0xFF,0x60
251.880340999999987,,0xFE,0x60
251.894440000000003,,0xFE,0x60
251.911225000000002,,0xFE,0x60
251.927947999999986,,0x7E,0x60
251.944671999999997,,0xFE,0x60
251.961823000000010,,0xFF,0x60
251.978180000000009,,0xFE,0x60
251.994903999999991,,0xFE,0x60
252.011688999999990,,0xFE,0x60
252.028412000000003,,0xFE,0x60
252.045136000000014,,0xFF,0x60
252.062958000000009,,0xFE,0x60
252.078643999999997,,0xFE,0x60
252.095428999999996,,0xFF,0x60
252.112213999999994,,0xFE,0x60
252.128937000000008,,0xFE,0x60
252.145722000000006,,0xFF,0x60
252.162750999999986,,0xFE,0x60
252.179229999999990,,0xFE,0x60
252.195893000000012,,0xFE,0x60
252.212615999999997,,0x7E,0x60
252.229462000000012,,0xFE,0x60
252.247222999999991,,0xFE,0x60
252.262847999999991,,0xFE,0x60
252.279572000000002,,0xFE,0x60
252.296357000000000,,0xFE,0x60
252.313201999999990,,0xFE,0x60
252.329803999999996,,0xFF,0x60
252.346893999999992,,0xFE,0x60
252.363312000000008,,0xFE,0x60
252.380097000000006,,0xFF,0x60
252.396882000000005,,0xFE,0x60
252.413544000000002,,0xFE,0x60
252.430268000000012,,0xFE,0x60
252.448028999999991,,0xFE,0x60
252.463775999999996,,0xFE,0x60
252.480560999999994,,0x60,0x60
252.497284000000008,,0xFE,0x60
252.531036999999998,,0x60,0x60
252.547455000000014,,0x60,0x60
252.564301000000000,,0x60,0x60
252.581025000000011,,0x60,0x60
252.597687000000008,,0x70,0x60
252.614410999999990,,0x60,0x60
252.633087999999987,,0x60,0x60
252.647979999999990,,0x70,0x60
252.664643000000012,,0x60,0x60
252.681365999999997,,0x00,0x60
252.698090000000008,,0x00,0x60
252.715240999999992,,0x00,0x00
252.731597999999991,,0x00,0x00
252.748322000000002,,0x00,0x00
252.765046000000012,,0x00,0x00
252.781891000000002,,0x00,0x00
252.798553999999996,,0x00,0x00
252.817048000000000,,0x00,0x00
252.832000999999991,,0x00,0x00
252.848847000000006,,0xFF,0x00
256.883821000000012,,0xFE,0x00
256.900666000000001,,0x72,0x62
256.917390000000012,,0x63,0x62
256.950776000000019,,0x62,0x62
256.970002000000022,,0x72,0x62
256.984222999999986,,0x22,0x62
257.001008000000013,,0x62,0x62
257.017732000000024,,0x62,0x62
257.034454999999980,,0x62,0x62
257.051544999999976,,0x72,0x62
257.067964000000018,,0x62,0x62
257.084686999999974,,0x72,0x62
257.101410999999985,,0x63,0x62
257.118134999999995,,0x62,0x62
257.134858000000008,,0x00,0x00
257.152557999999999,,0x00,0x00
257.168428000000006,,0x00,0x00
257.185151000000019,,0x00,0x00
257.201935999999989,,0x00,0x00
257.218659000000002,,0x00,0x00
257.235810000000015,,0x00,0x00
257.252107000000024,,0x00,0x00
257.268890999999996,,0x00,0x00
301.551972999999975,,0x00,0x00
301.568758000000003,,0xFE,0x62
301.585482000000013,,0xFE,0x62
301.602327000000002,,0x7E,0x62
301.619051000000013,,0xFE,0x62
301.635714000000007,,0xFE,0x62
301.652804000000003,,0xFE,0x62
301.669221999999991,,0xFF,0x62
301.686007000000018,,0xFE,0x62
301.702669000000014,,0xFE,0x62
301.719515000000001,,0xFF,0x62
301.736177999999995,,0xFE,0x62
301.752901000000008,,0xFE,0x62
301.769746999999995,,0xFF,0x62
301.786408999999992,,0x7E,0x62
301.803133000000003,,0xFE,0x62
301.819978999999989,,0xFE,0x62
301.836640999999986,,0xFE,0x62
301.853426000000013,,0xFE,0x62
301.872591000000000,,0xFE,0x62
301.886812000000020,,0xFE,0x62
301.903535999999974,,0xFF,0x62
301.920321000000001,,0xFE,0x62
301.937044000000014,,0xFE,0x62
301.953768000000025,,0xFE,0x62
301.970552999999995,,0xFE,0x62
301.987276000000008,,0xFE,0x62
302.004060999999979,,0xFE,0x62
302.020783999999992,,0x7E,0x62
302.037569000000019,,0xFE,0x62
302.054353999999989,,0xFE,0x62
302.071443999999985,,0xFE,0x62
302.087801000000013,,0xFE,0x62
302.104525000000024,,0xFE,0x62
302.121247999999980,,0xFE,0x62
302.138094000000024,,0xFF,0x62
302.154757000000018,,0xFE,0x62
302.171540999999991,,0xFE,0x62
302.188265000000001,,0xFF,0x62
302.204989000000012,,0xFE,0x62
302.221772999999985,,0xFE,0x62
302.238496999999995,,0x62,0x62
302.255220000000008,,0x7E,0x62
302.288607000000013,,0x62,0x62
302.305390999999986,,0x22,0x62
302.322114999999997,,0x61,0x62
302.338839000000007,,0x62,0x62
302.355622999999980,,0x72,0x62
302.372346999999991,,0x63,0x62
302.389132000000018,,0x62,0x62
302.405854999999974,,0x72,0x62
302.422761999999977,,0x63,0x62
302.439364000000012,,0x00,0x62
302.456087000000025,,0x00,0x62
302.472810999999979,,0x00,0x00
302.489533999999992,,0x00,0x00
302.506379999999979,,0x00,0x00
302.523103999999989,,0x00,0x00
302.539765999999986,,0x00,0x00
302.556489999999997,,0x00,0x00
302.573275000000024,,0x00,0x00
302.590058999999997,,0x00,0x00
302.606721999999991,,0xFF,0x00
304.175447000000020,,0xFE,0x00
304.180634999999995,,0x62,0x62
304.197359000000006,,0xFE,0x62
304.230928000000006,,0x22,0x62
304.247591000000000,,0x63,0x62
304.264315000000011,,0x62,0x62
304.281038000000024,,0x72,0x62
304.297822999999994,,0x63,0x62
304.314608000000021,,0x62,0x62
304.331330999999977,,0x72,0x62
304.350496000000021,,0x72,0x62
304.364716999999985,,0x62,0x62
304.381440999999995,,0xFE,0x62
304.398165000000006,,0x62,0x62
304.414888000000019,,0x00,0x00
304.431672999999989,,0x00,0x00
304.448397000000000,,0x00,0x00
304.465180999999973,,0x00,0x00
304.481904999999983,,0x00,0x00
304.498690000000011,,0x00,0x00
304.515473999999983,,0x00,0x00
304.532136999999977,,0x00,0x00
304.549287999999990,,0x00,0x00
304.599214000000018,,0x00,0x00
304.615877000000012,,0xFD,0x00
304.666109000000006,,0xFF,0x00
304.667391000000009,,0xFD,0xFD
304.668672000000015,,0xFD,0xFD
304.669954000000018,,0xFD,0xFD
304.671236000000022,,0xFF,0xFD
304.672578999999985,,0xFD,0xFD
304.673922000000005,,0xFD,0xFD
304.675203000000010,,0xFD,0xFD
304.676485000000014,,0xFF,0xFD
304.677767000000017,,0xFD,0x68
304.679048000000023,,0xE0,0x70
304.680330000000026,,0x0E,0x7A
304.681611999999973,,0x3F,0x86
304.682893999999976,,0x6E,0x94
304.684174999999982,,0x61,0xA4
304.685456999999985,,0xDE,0xB6
304.686738999999989,,0x0F,0xCA
304.688082000000009,,0x46,0xDF
304.689423999999974,,0x01,0xF6
304.690766999999994,,0xBD,0xFD
304.692110000000014,,0xFF,0xFD
304.693452999999977,,0xFD,0xFD
304.694734999999980,,0xFD,0xFD
304.696015999999986,,0xFD,0xFD
304.697297999999989,,0xFF,0xFD
304.698579999999993,,0xFD,0xFD
304.699860999999999,,0xFD,0xFD
304.701143000000002,,0x99,0xFD
304.702486000000022,,0x86,0x83
304.703828999999985,,0x83,0x91
304.705109999999991,,0xD0,0x80
304.706391999999994,,0x80,0x82
304.707673999999997,,0x93,0x8E
304.708956000000001,,0x87,0x8D
304.710237000000006,,0xD0,0x50
304.711519000000010,,0x81,0x00
304.712801000000013,,0x80,0x00
304.714083000000016,,0x82,0x00
304.715364000000022,,0x04,0x00
304.716706999999985,,0x42,0x06
304.718050000000005,,0x30,0xB0
304.719332000000009,,0x68,0x80
304.720613000000014,,0x0E,0xA5
304.721895000000018,,0xFF,0x24
304.723177000000021,,0x00,0x33
304.724459000000024,,0x00,0x83
304.725739999999973,,0x0A,0xFF
304.727021999999977,,0x01,0xB0
304.728303999999980,,0x34,0x00
304.729585999999983,,0x32,0x22
304.730866999999989,,0x00,0x00
304.732210000000009,,0x1D,0x00
304.733552999999972,,0x03,0x14
304.734834999999975,,0x03,0x14
304.736115999999981,,0xC0,0x2D
304.737397999999985,,0x3E,0x0A
304.738679999999988,,0x3B,0x2D
304.739961999999991,,0x13,0x34
304.741242999999997,,0xEA,0x00
304.742525000000001,,0x7C,0xAC
304.743807000000004,,0x0B,0x15
304.745089000000007,,0xB6,0x00
304.746430999999973,,0xF8,0x05
304.747773999999993,,0x6D,0xD9
304.749055999999996,,0xAA,0x02
304.750337999999999,,0x6B,0xB1
304.751619000000005,,0xFE,0x03
304.752901000000008,,0x6C,0x01
304.754183000000012,,0x96,0x02
304.755465000000015,,0x6A,0xC6
304.756746000000021,,0xB3,0x03
304.758028000000024,,0x68,0x9B
304.759310000000028,,0x96,0x01
304.760590999999977,,0x31,0xC8
304.761933999999997,,0x91,0x6D
304.763277000000016,,0x23,0x8E
304.764559000000020,,0x0A,0x23
304.765840000000026,,0x05,0x28
304.767121999999972,,0x0F,0x19
304.768403999999975,,0x56,0x00
304.769685999999979,,0x01,0x0D
304.770966999999985,,0xB4,0x00
304.772248999999988,,0x00,0x22
304.773530999999991,,0xBD,0x00
304.774812999999995,,0x00,0x14
304.776155000000017,,0xD3,0x00
304.777497999999980,,0x00,0x14
304.778779999999983,,0xC7,0x00
304.780061999999987,,0x00,0x18
304.781342999999993,,0xFF,0x00
304.782624999999996,,0x39,0x16
304.783906999999999,,0x01,0x80
304.785189000000003,,0x13,0x00
304.786470000000008,,0xAE,0x61
304.787752000000012,,0x00,0x21
304.789034000000015,,0x05,0x00
304.790316000000018,,0x04,0x15
304.791657999999984,,0xFF,0x15
304.793001000000004,,0x5D,0xBE
304.794283000000007,,0x58,0x0A
304.795565000000011,,0x9D,0x27
304.796846000000016,,0xD9,0x32
304.798128000000020,,0xEE,0x00
304.799410000000023,,0x78,0xEA
304.800692000000026,,0x09,0x78
304.801972999999975,,0xF8,0x00
304.803254999999979,,0x07,0x8C
304.804536999999982,,0x67,0x61
304.805880000000002,,0x8A,0x00
304.807222000000024,,0x68,0x00
304.808504000000028,,0xBF,0x00
304.809785999999974,,0x67,0x00
304.811067999999977,,0xB4,0x00
304.812348999999983,,0x77,0x00
304.813630999999987,,0xAF,0x00
304.814912999999990,,0x67,0x00
304.816193999999996,,0xE3,0x00
304.817475999999999,,0x01,0x00
304.818758000000003,,0x9E,0xA4
304.820040000000006,,0x0A,0x7F
304.821382000000028,,0x0F,0x23
304.822724999999991,,0x0A,0x1E
304.824006999999995,,0x06,0x14
304.825288999999998,,0x55,0x00
304.826570000000004,,0x81,0x21
304.827852000000007,,0x1B,0x00
304.829134000000010,,0x00,0x61
304.830416000000014,,0xE2,0x00
304.831697000000020,,0x01,0x41
304.832979000000023,,0x05,0x00
304.834261000000026,,0x00,0x3B
304.835603999999989,,0x82,0x00
304.836946000000012,,0x00,0x41
304.838228000000015,,0x98,0x00
304.839510000000018,,0x68,0x43
304.840792000000022,,0x00,0xA5
304.842073000000028,,0xFD,0x00
304.843354999999974,,0x1D,0x1B
304.844636999999977,,0x00,0x00
304.845918999999981,,0x17,0x00
304.847199999999987,,0x17,0x00
304.848481999999990,,0x2F,0x00
304.849763999999993,,0x18,0xFF
304.851107000000013,,0x56,0x21
304.852448999999979,,0x62,0x27
304.853730999999982,,0x5B,0x62
304.855012999999985,,0xEA,0x00
304.856294999999989,,0x78,0xAC
304.857575999999995,,0x09,0x15
304.858857999999998,,0x5E,0x00
304.860140000000001,,0xED,0x03
304.861422000000005,,0x64,0x05
304.862703000000010,,0x3F,0x01
304.863985000000014,,0x66,0x1B
304.865327999999977,,0xA0,0x01
304.866670999999997,,0x64,0x1D
304.867952000000002,,0x16,0x01
304.869234000000006,,0x66,0x01
304.870516000000009,,0x32,0x01
304.871797000000015,,0x64,0x62
304.873079000000018,,0x33,0x00
304.874361000000022,,0x77,0xB4
304.875643000000025,,0xE4,0xD1
304.876923999999974,,0x1E,0x2D
304.878205999999977,,0x1C,0x23
304.879487999999981,,0x1F,0x1E
304.880831000000001,,0x0A,0x1E
304.882173000000023,,0x55,0x00
304.883455000000026,,0x00,0x09
304.884736999999973,,0xFE,0x00
304.886018999999976,,0x00,0x1B
304.887299999999982,,0xA1,0x00
304.888581999999985,,0x00,0x11
304.889863999999989,,0x97,0x00
304.891145999999992,,0x01,0x0B
304.892426999999998,,0x9B,0x00
304.893709000000001,,0x00,0x12
304.895052000000021,,0xE8,0x00
304.896394999999984,,0x0E,0x0C
304.897675999999990,,0x00,0x24
304.898957999999993,,0xFD,0x00
304.900239999999997,,0x2B,0x1E
304.901522000000000,,0x00,0x00
304.902803000000006,,0x08,0x00
304.904085000000009,,0x03,0x00
304.905367000000012,,0x5A,0x02
304.906649000000016,,0x8A,0xFF
304.907930000000022,,0x6D,0x10
304.909212000000025,,0x67,0x00
304.910554999999988,,0x5F,0x00
304.911898000000008,,0xEA,0x00
304.913179000000014,,0x78,0xAC
304.914461000000017,,0x0D,0x15
304.915743000000020,,0xB8,0x00
304.917025000000024,,0x07,0x03
304.918305999999973,,0x67,0x0C
304.919587999999976,,0x71,0x00
304.920869999999979,,0x68,0xE6
304.922151999999983,,0x82,0x00
304.923432999999989,,0x78,0xAA
304.924776000000008,,0x1E,0x00
304.926119000000028,,0x67,0xFA
304.927400999999975,,0x00,0x00
304.928681999999981,,0x76,0xC4
304.929963999999984,,0xB3,0x00
304.931245999999987,,0x54,0x6E
304.932526999999993,,0x75,0x60
304.933808999999997,,0x0F,0xDA
304.935091000000000,,0x0B,0x23
304.936373000000003,,0x0F,0x00
304.937654000000009,,0x94,0x00
304.938936000000012,,0x5D,0x00
304.940278999999975,,0x00,0x0B
304.941621999999995,,0xF9,0x00
304.942903000000001,,0x80,0x1E
304.944185000000004,,0x9E,0x00
304.945467000000008,,0x00,0x10
304.946749000000011,,0x94,0x00
304.948030000000017,,0x00,0x0E
304.949312000000020,,0xF5,0x00
304.950594000000024,,0x01,0x14
304.951876000000027,,0x0C,0x00
304.953156999999976,,0x00,0x0F
304.954499999999996,,0x00,0x33
304.955843000000016,,0x00,0x01
304.957125000000019,,0x00,0x05
304.958406000000025,,0x00,0x26
304.959688000000028,,0x00,0x00
304.960969999999975,,0x00,0x14
304.962251999999978,,0x00,0x14
304.963532999999984,,0x00,0x2D
304.964814999999987,,0x00,0x35
304.966096999999991,,0x00,0x7B
304.967378999999994,,0x00,0x6D
304.968660000000000,,0x00,0x07
304.970003000000020,,0x00,0xEA
304.971345999999983,,0x00,0x78
304.972627999999986,,0x00,0x09
304.973908999999992,,0x00,0x5E
304.975190999999995,,0x00,0xED
304.976472999999999,,0x00,0x67
304.977755000000002,,0x00,0x50
304.979036000000008,,0x00,0x68
304.980318000000011,,0x00,0x54
304.981600000000014,,0x00,0x67
304.982881000000020,,0x00,0xA3
304.984223999999983,,0x00,0x69
304.985567000000003,,0x00,0x2A
304.986849000000007,,0x00,0x68
304.988131000000010,,0x00,0x5D
304.989412000000016,,0x00,0x5B
304.990694000000019,,0x00,0x29
304.991976000000022,,0x00,0x0F
304.993257000000028,,0x00,0x14
304.994538999999975,,0x00,0x0A
304.995820999999978,,0x00,0x0F
304.997102999999981,,0x00,0x55
304.998383999999987,,0x00,0x01
304.999727000000007,,0x00,0x05
305.001070000000027,,0x00,0x00
305.002351999999973,,0x00,0xD1
305.003632999999979,,0x00,0x00
305.004914999999983,,0x00,0x9A
305.006196999999986,,0x00,0x00
305.007478999999989,,0x00,0xC9
305.008759999999995,,0x00,0x00
305.010041999999999,,0x00,0xC7
305.011324000000002,,0x00,0x83
305.012606000000005,,0x00,0x01
305.013948000000028,,0x00,0x35
305.015290999999991,,0x00,0x49
305.016572999999994,,0x00,0x00
305.017854999999997,,0x00,0x18
305.019136000000003,,0x00,0x18
305.020418000000006,,0x00,0x03
305.021700000000010,,0x00,0x81
305.022982000000013,,0x00,0x5E
305.024263000000019,,0x00,0x85
305.025545000000022,,0x00,0x69
305.026827000000026,,0x00,0xEA
305.028108999999972,,0x00,0x78
305.029450999999995,,0x00,0x0B
305.030794000000014,,0x00,0xB6
305.032076000000018,,0x00,0xA8
305.033358000000021,,0x00,0x66
305.034639000000027,,0x00,0x92
305.035920999999973,,0x00,0x68
305.037202999999977,,0x00,0x77
305.038484999999980,,0x00,0x65
305.039765999999986,,0x00,0x2F
305.041047999999989,,0x00,0x69
305.042329999999993,,0x00,0x18
305.043673000000013,,0x00,0x69
305.045014999999978,,0x00,0x26
305.046296999999981,,0x00,0x60
305.047578999999985,,0x00,0xA6
305.048860999999988,,0x00,0x14
305.050141999999994,,0x00,0x0A
305.051423999999997,,0x00,0x14
305.052706000000001,,0x00,0x14
305.053987000000006,,0x00,0x55
305.055269000000010,,0x00,0x01
305.056551000000013,,0x00,0x35
305.057833000000016,,0x00,0x00
305.059174999999982,,0x00,0xED
305.060518000000002,,0x00,0x00
305.061800000000005,,0x00,0xC0
305.063082000000009,,0x00,0x01
305.064363000000014,,0x00,0x15
305.065645000000018,,0x00,0x01
305.066927000000021,,0x83,0x37
305.068209000000024,,0x91,0x91
305.069489999999973,,0xC0,0x84
305.070771999999977,,0x82,0x83
305.072053999999980,,0x8F,0x50
305.073397000000000,,0x8D,0x80
305.074739000000022,,0x90,0x92
305.076021000000026,,0x00,0x87
305.077302999999972,,0x00,0x50
305.078584999999975,,0x00,0x89
305.079865999999981,,0x00,0x80
305.081147999999985,,0x83,0x82
305.082429999999988,,0x91,0x83
305.083711999999991,,0x80,0x91
305.084992999999997,,0xC2,0x80
305.086275000000001,,0x8E,0x82
305.087557000000004,,0x8D,0x8E
305.088900000000024,,0x50,0x8D
305.090241999999989,,0x00,0x50
305.091523999999993,,0x00,0x00
305.092805999999996,,0x00,0x00
305.094087999999999,,0x00,0x00
305.095369000000005,,0xC3,0x00
305.096651000000008,,0x91,0x91
305.097933000000012,,0x80,0x84
305.099215000000015,,0x82,0x83
305.100496000000021,,0x8E,0x50
305.101778000000024,,0x8E,0x80
305.103120999999987,,0x50,0x92
305.104464000000007,,0x00,0x87
305.105745000000013,,0x00,0x50
305.107027000000016,,0x00,0x89
305.108309000000020,,0x00,0x80
305.109591000000023,,0x83,0x82
305.110871999999972,,0x89,0x91
305.112153999999975,,0x80,0x84
305.113435999999979,,0x82,0x83
305.114716999999985,,0x8E,0x50
305.115998999999988,,0x85,0x80
305.117280999999991,,0x50,0x92
305.118624000000011,,0x00,0x87
305.119965999999977,,0x00,0x50
305.121247999999980,,0x00,0x89
305.122529999999983,,0x00,0x80
305.123811999999987,,0x00,0x82
305.125092999999993,,0x00,0x83
305.126374999999996,,0x00,0x91
305.127656999999999,,0x00,0x80
305.128939000000003,,0x00,0x82
305.130220000000008,,0x00,0x8E
305.131502000000012,,0x00,0x8D
305.132844999999975,,0x00,0x50
305.134187999999995,,0x00,0x00
305.135469000000001,,0x00,0x00
305.136751000000004,,0x00,0x00
305.138033000000007,,0x00,0x00
305.139315000000011,,0x00,0x83
305.140596000000016,,0x00,0x91
305.141878000000020,,0x00,0x80
305.143160000000023,,0x00,0x82
305.144442000000026,,0x00,0x8E
305.145722999999975,,0x00,0x8D
305.147004999999979,,0x00,0x50
305.148347999999999,,0x00,0x00
305.149691000000018,,0x00,0x00
305.150972000000024,,0x00,0x00
305.152254000000028,,0x80,0x00
305.153535999999974,,0x92,0x82
305.154817999999977,,0x82,0x87
305.156098999999983,,0x86,0x80
305.157380999999987,,0x9E,0x91
305.158662999999990,,0x86,0x8C
305.159944999999993,,0x8E,0x80
305.161225999999999,,0x8D,0x8D
305.162569000000019,,0x8E,0x83
305.163911999999982,,0x80,0x84
305.165193999999985,,0x50,0x91
305.166474999999991,,0xF3,0x50
305.167756999999995,,0xA7,0x86
305.169038999999998,,0xA0,0x8E
305.170321000000001,,0xA2,0x8B
305.171602000000007,,0xB2,0x83
305.172884000000010,,0xE3,0x94
305.174166000000014,,0xA4,0x82
305.175447000000020,,0xEC,0x8A
305.176729000000023,,0xF3,0x50
305.178071999999986,,0x80,0x50
305.179415000000006,,0x50,0x50
305.180696000000012,,0x2B,0x50
305.181978000000015,,0xB3,0x91
305.183260000000018,,0xE3,0x80
305.184542000000022,,0x8F,0x93
305.185823000000028,,0xD6,0x93
305.187104999999974,,0x8D,0x80
305.188386999999977,,0xAB,0x93
305.189668999999981,,0xA4,0x80
305.190949999999987,,0xCC,0x50
305.192293000000006,,0xBE,0x50
305.193636000000026,,0x50,0x50
305.194917999999973,,0xAD,0x50
305.196198999999979,,0xE7,0x8F
305.197480999999982,,0xE3,0x88
305.198762999999985,,0xE7,0x83
305.200044999999989,,0x9B,0x86
305.201325999999995,,0xF0,0x84
305.202607999999998,,0x0D,0x98
305.203890000000001,,0x0B,0x50
305.205172000000005,,0x09,0x50
305.206453000000010,,0x02,0x50
305.207795999999973,,0x00,0x50
305.209138999999993,,0x00,0x50
305.210420999999997,,0x00,0x8C
305.211702000000002,,0x00,0x80
305.212984000000006,,0x00,0x86
305.214266000000009,,0x00,0x8C
305.215548000000013,,0x00,0x80
305.216829000000018,,0x00,0x91
305.218111000000022,,0x00,0x50
305.219393000000025,,0x00,0x50
305.220673999999974,,0x00,0x50
305.222016999999994,,0x00,0x50
305.223360000000014,,0x00,0x50
305.224642000000017,,0x00,0x8C
305.225924000000020,,0x00,0x84
305.227205000000026,,0x00,0x96
305.228486999999973,,0x00,0x93
305.229768999999976,,0x00,0x96
305.231049999999982,,0x00,0x8E
305.232331999999985,,0x00,0x50
305.233613999999989,,0x00,0x50
305.234895999999992,,0x00,0x50
305.236176999999998,,0x00,0x50
305.237520000000018,,0x00,0x50
305.238862999999981,,0x90,0xFF
305.240144999999984,,0x04,0x9F
305.241487000000006,,0x7D,0x07
305.242769000000010,,0xFD,0xFD
305.244051000000013,,0xFE,0xFD
305.245333000000016,,0xFD,0xFD
305.246614000000022,,0xFD,0xFD
305.247896000000026,,0xFD,0x00
305.249177999999972,,0x00,0x00
305.250459999999975,,0x00,0x00
305.251740999999981,,0x00,0x00
305.253084000000001,,0x00,0x00
305.254427000000021,,0x00,0x00
305.255709000000024,,0x00,0x00
305.256989999999973,,0x00,0xFF
305.258271999999977,,0x2C,0xFF
305.259553999999980,,0xFF,0x00
305.260835999999983,,0xFF,0x00
305.262116999999989,,0x80,0x00
305.263398999999993,,0x00,0x00
305.264680999999996,,0x00,0x00
305.265962999999999,,0x00,0x00
305.267305000000022,,0x00,0x00
305.268647999999985,,0x00,0x00
305.269929999999988,,0x00,0x00
305.271211999999991,,0x00,0x00
305.272492999999997,,0x00,0x00
305.273775000000001,,0x00,0x00
305.275057000000004,,0x00,0x00
305.276339000000007,,0x00,0x00
305.277620000000013,,0x00,0x00
305.278902000000016,,0x00,0x00
305.280184000000020,,0x00,0x00
305.281465000000026,,0x00,0x00
305.282807999999989,,0x00,0x00
305.284151000000008,,0x00,0x00
305.285433000000012,,0x00,0x00
305.286715000000015,,0x00,0x00
305.287996000000021,,0x00,0x00
305.289278000000024,,0x00,0x00
305.290560000000028,,0x00,0x00
305.291840999999977,,0x00,0x00
305.293122999999980,,0x00,0x00
305.294404999999983,,0x00,0x00
305.295686999999987,,0x00,0x00
305.297029000000009,,0x00,0x00
305.298371999999972,,0x00,0x00
305.299653999999975,,0x00,0x00
305.300935999999979,,0x00,0x00
305.302216999999985,,0x00,0x00
305.303498999999988,,0x00,0x00
305.304780999999991,,0x00,0x00
305.306062999999995,,0x00,0x00
305.307344000000001,,0x00,0x00
305.308626000000004,,0x00,0x00
305.309908000000007,,0x00,0x00
305.311190000000011,,0x00,0x00
305.312531999999976,,0x00,0x00
305.313874999999996,,0x00,0x00
305.315156999999999,,0x00,0x00
305.316439000000003,,0x00,0x00
305.317720000000008,,0x00,0x00
305.319002000000012,,0x00,0x00
305.320284000000015,,0x00,0x00
305.321566000000018,,0x00,0x00
305.322847000000024,,0x00,0x00
305.324129000000028,,0x00,0x00
305.325410999999974,,0x00,0x00
305.326753999999994,,0x00,0x00
305.328096000000016,,0x00,0x00
305.329378000000020,,0x00,0x00
305.330660000000023,,0x00,0x00
305.331942000000026,,0x00,0x00
305.333222999999975,,0x00,0x00
305.334504999999979,,0x00,0x00
305.335786999999982,,0x00,0x00
305.337068999999985,,0x00,0x00
305.338349999999991,,0x00,0x00
305.339631999999995,,0x00,0x00
305.340913999999998,,0x00,0x00
305.342257000000018,,0x00,0x00
305.343598999999983,,0x00,0x00
305.344880999999987,,0x00,0x00
305.346162999999990,,0x00,0x00
305.347443999999996,,0x00,0x00
305.348725999999999,,0x00,0x00
305.350008000000003,,0x00,0x00
305.351290000000006,,0x00,0x00
305.352571000000012,,0x00,0x00
305.353853000000015,,0x00,0x00
305.355135000000018,,0x00,0x00
305.356477999999981,,0x00,0x00
305.357820000000004,,0x00,0x00
305.359102000000007,,0x00,0x00
305.360384000000010,,0x00,0x00
305.361666000000014,,0x00,0x00
305.362947000000020,,0x00,0x00
305.364229000000023,,0x00,0x00
305.365511000000026,,0x00,0x00
305.366792999999973,,0x00,0x00
305.368073999999979,,0x00,0x00
305.369355999999982,,0x00,0x00
305.370637999999985,,0x00,0x00
305.371981000000005,,0x00,0x00
305.373323000000028,,0x00,0x00
305.374604999999974,,0x00,0x00
305.375886999999977,,0x00,0x00
305.377168999999981,,0x00,0x00
305.378449999999987,,0x00,0x00
305.379731999999990,,0x00,0x00
305.381013999999993,,0x00,0x00
305.382295999999997,,0x00,0x00
305.383577000000002,,0x00,0x00
305.384859000000006,,0x00,0x00
305.386202000000026,,0x00,0x00
305.387544999999989,,0x00,0x00
305.388825999999995,,0x00,0x00
305.390107999999998,,0x00,0x00
305.391390000000001,,0x00,0x00
305.392672000000005,,0x00,0x00
305.393953000000010,,0x00,0x00
305.395235000000014,,0x00,0x00
305.396517000000017,,0x00,0x00
305.397798000000023,,0x00,0x00
305.399080000000026,,0x00,0x00
305.400361999999973,,0x00,0x00
305.401704999999993,,0x00,0x00
305.403048000000013,,0x00,0x00
305.404329000000018,,0x00,0x00
305.405611000000022,,0x00,0x00
305.406893000000025,,0x00,0x00
305.408173999999974,,0x00,0x00
305.409455999999977,,0x00,0x00
305.410737999999981,,0x00,0x00
305.412019999999984,,0x00,0x00
305.413300999999990,,0x00,0x00
305.414582999999993,,0x00,0x00
305.415926000000013,,0x00,0x00
305.417268999999976,,0x00,0x00
305.418549999999982,,0x00,0x00
305.419831999999985,,0x00,0x00
305.421113999999989,,0x00,0x00
305.422395999999992,,0x00,0x00
305.423676999999998,,0x00,0x00
305.424959000000001,,0x00,0x00
305.426241000000005,,0x00,0x00
305.427523000000008,,0x00,0x00
305.428804000000014,,0x00,0x00
305.430086000000017,,0x00,0x00
305.431428999999980,,0x00,0x00
305.432772000000000,,0x00,0x00
305.434053000000006,,0x00,0x00
305.435335000000009,,0x00,0x00
305.436617000000012,,0x00,0x00
305.437899000000016,,0x00,0x00
305.439180000000022,,0x00,0x00
305.440462000000025,,0x00,0x00
305.441744000000028,,0x00,0x00
305.443025999999975,,0x00,0x00
305.444306999999981,,0x00,0x00
305.445650000000001,,0x00,0x00
305.446993000000020,,0x00,0x00
305.448275000000024,,0x00,0x00
305.449555999999973,,0x00,0x00
305.450837999999976,,0x00,0x00
305.452119999999979,,0x00,0x00
305.453401999999983,,0x00,0x00
305.454682999999989,,0x00,0x00
305.455964999999992,,0x00,0x00
305.457246999999995,,0x00,0x00
305.458528000000001,,0x00,0x00
305.459810000000004,,0x00,0x00
305.461153000000024,,0x00,0x00
305.462495999999987,,0x00,0x00
305.463777999999991,,0x00,0x00
305.465058999999997,,0x00,0x00
305.466341000000000,,0x00,0x00
305.467623000000003,,0x00,0x00
305.468904000000009,,0x00,0x00
305.470186000000012,,0x00,0x00
305.471468000000016,,0x00,0x00
305.472750000000019,,0x00,0x00
305.474031000000025,,0x00,0x00
305.475373999999988,,0x00,0x00
305.476717000000008,,0x00,0x00
305.477999000000011,,0x00,0x00
305.479280000000017,,0x00,0x00
305.480562000000020,,0x00,0x00
305.481844000000024,,0x00,0x00
305.483126000000027,,0x00,0x00
305.484406999999976,,0x00,0x00
305.485688999999979,,0x00,0x00
305.486970999999983,,0x00,0x00
305.488252999999986,,0x00,0x00
305.489533999999992,,0x00,0x00
305.490877000000012,,0x00,0x00
305.492219999999975,,0x00,0x00
305.493501999999978,,0x00,0x00
305.494782999999984,,0x00,0x00
305.496064999999987,,0x00,0x00
305.497346999999991,,0x00,0x00
305.498628999999994,,0x00,0x00
305.499910000000000,,0x00,0x00
313.656953999999985,,0x00,0x00
313.674043999999981,,0x00,0x6F
313.690401000000008,,0xFF,0x6F
313.707185999999979,,0xFE,0x6F
313.723908999999992,,0xFE,0x6F
313.740633000000003,,0xFF,0x6F
313.757417999999973,,0xFE,0x6F
313.776643999999976,,0xFE,0x6F
313.790864999999997,,0xFE,0x6F
313.807649000000026,,0x7E,0x6F
313.824372999999980,,0xFE,0x6F
313.841096999999991,,0xFE,0x6F
313.857881000000020,,0xFE,0x6F
313.874971000000016,,0xFE,0x6F
313.891328999999985,,0xFE,0x6F
313.908113000000014,,0xFE,0x6F
313.924837000000025,,0xFF,0x6F
313.941560999999979,,0xFE,0x6F
313.960847999999999,,0xFE,0x6F
313.975069000000019,,0xFF,0x6F
313.991792999999973,,0xFE,0x6F
314.008515999999986,,0xFE,0x6F
314.025301000000013,,0xFF,0x6F
314.042024000000026,,0x6F,0x6F
314.059114000000022,,0xFE,0x6F
314.092195000000004,,0x2F,0x6F
314.108979999999974,,0x6F,0x6F
314.125703999999985,,0x6F,0x6F
314.142548999999974,,0xAF,0x6F
314.162081000000001,,0x6F,0x6F
314.175935999999979,,0x6F,0x6F
314.192658999999992,,0xFE,0x6F
314.209444000000019,,0x6F,0x6F
314.226167999999973,,0x6F,0x6F
314.243257000000028,,0x80,0x6F
314.259614999999997,,0x00,0x6F
314.276338000000010,,0x00,0x00
314.293122999999980,,0x00,0x00
314.309846999999991,,0x00,0x00
314.326570000000004,,0x00,0x00
314.344270999999992,,0x00,0x00
314.360078999999985,,0x00,0x00
314.376863000000014,,0x00,0x00
314.393647999999985,,0x00,0x00
314.410433000000012,,0xFE,0x00
337.076995000000011,,0xFE,0x00
337.080534999999998,,0x7F,0x6F
337.097197999999992,,0xFF,0x6F
337.132414999999980,,0x67,0x6F
337.147369000000026,,0x6F,0x6F
337.164152999999999,,0xEF,0x6F
337.180877000000010,,0x6F,0x6F
337.197601000000020,,0x6F,0x6F
337.214323999999976,,0x7F,0x6F
337.231109000000004,,0x6F,0x6F
337.247833000000014,,0x6F,0x6F
337.264556000000027,,0x7F,0x6F
337.281340999999998,,0x6F,0x6F
337.298002999999994,,0xEF,0x6F
337.314788000000021,,0x00,0x00
337.331511999999975,,0x00,0x00
337.348234999999988,,0x00,0x00
337.367644999999982,,0x00,0x00
337.381744000000026,,0x00,0x00
337.398466999999982,,0x00,0x00
337.415252000000010,,0x00,0x00
337.431976000000020,,0x00,0x00
337.448698999999976,,0x00,0x00
337.498931000000027,,0x00,0x00
337.515654999999981,,0xFD,0x00
337.565947999999992,,0xFD,0x00
337.567291000000012,,0xFD,0xFD
337.568632999999977,,0xFD,0xFD
337.569914999999980,,0xFF,0xFD
337.571196999999984,,0xFD,0xFD
337.572478999999987,,0xFD,0xFD
337.573759999999993,,0xFD,0xFD
337.575041999999996,,0xFF,0xFD
337.576324000000000,,0xFD,0xFD
337.577606000000003,,0xFD,0x89
337.578887000000009,,0xF7,0x43
337.580169000000012,,0x5E,0xBC
337.581511999999975,,0x13,0x7C
337.582854999999995,,0xCC,0x3E
337.584136000000001,,0xC7,0x02
337.585418000000004,,0x46,0xC7
337.586700000000008,,0x03,0x8E
337.587981000000013,,0xC3,0x57
337.589323999999976,,0x85,0x22
337.590605999999980,,0x4D,0xFD
337.591887999999983,,0xFD,0xFD
337.593168999999989,,0xFD,0xFD
337.594450999999992,,0xFD,0xFD
337.595732999999996,,0xFE,0xFD
337.597014999999999,,0xFD,0xFD
337.598296000000005,,0xFD,0xFD
337.599578000000008,,0xFD,0xFD
337.600860000000011,,0x91,0xFD
337.602142000000015,,0x84,0x83
337.603483999999980,,0xC3,0x91
337.604827000000000,,0x58,0x80
337.606109000000004,,0x80,0x82
337.607391000000007,,0x92,0x8E
337.608672000000013,,0xC7,0x8D
337.609954000000016,,0x58,0x50
337.611236000000019,,0x89,0x00
337.612518000000023,,0x80,0x00
337.613798999999972,,0xC2,0x00
337.615080999999975,,0x00,0x00
337.616362999999978,,0x4A,0x06
337.617705999999998,,0x31,0xB0
337.619048000000021,,0xA8,0x80
337.620330000000024,,0x0E,0xA5
337.621612000000027,,0xFF,0x24
337.622893999999974,,0x00,0x33
337.624174999999980,,0x00,0x83
337.625456999999983,,0x4E,0xFF
337.626738999999986,,0x01,0xB0
337.628020999999990,,0x34,0x00
337.629301999999996,,0x12,0x22
337.630583999999999,,0x00,0x00
337.631866000000002,,0x19,0x00
337.633209000000022,,0x02,0x14
337.634550999999988,,0x03,0x14
337.635832999999991,,0x40,0x2D
337.637114999999994,,0x3A,0x0A
337.638396999999998,,0x3B,0x2D
337.639678000000004,,0x03,0x34
337.640960000000007,,0xEF,0x00
337.642242000000010,,0x78,0xAC
337.643523000000016,,0x0B,0x15
337.644805000000019,,0xBE,0x00
337.646087000000023,,0xA8,0x05
337.647429999999986,,0x69,0xD9
337.648772000000008,,0xAA,0x02
337.650054000000011,,0x7B,0xB1
337.651336000000015,,0xBF,0x03
337.652618000000018,,0x6A,0x01
337.653899000000024,,0x16,0x02
337.655181000000027,,0x72,0xC6
337.656462999999974,,0xA3,0x03
337.657744999999977,,0x69,0x9B
337.659025999999983,,0xD6,0x01
337.660307999999986,,0x39,0xC8
337.661589999999990,,0x91,0x6D
337.662933000000010,,0x23,0x8E
337.664274999999975,,0x8A,0x23
337.665556999999978,,0x05,0x28
337.666838999999982,,0x0F,0x19
337.668120999999985,,0x55,0x00
337.669401999999991,,0x81,0x0D
337.670683999999994,,0x38,0x00
337.671965999999998,,0x00,0x22
337.673248000000001,,0xBD,0x00
337.674529000000007,,0x00,0x14
337.675811000000010,,0xDB,0x00
337.677153999999973,,0x00,0x14
337.678496999999993,,0xC7,0x00
337.679777999999999,,0x80,0x18
337.681060000000002,,0xFF,0x00
337.682342000000006,,0x31,0x16
337.683624000000009,,0x01,0x80
337.684905000000015,,0x13,0x00
337.686187000000018,,0x2E,0x61
337.687469000000021,,0x00,0x21
337.688751000000025,,0x05,0x00
337.690031999999974,,0x04,0x15
337.691313999999977,,0xFF,0x15
337.692656999999997,,0x59,0xBE
337.694000000000017,,0x58,0x0A
337.695281000000023,,0xCD,0x27
337.696563000000026,,0x9D,0x32
337.697844999999973,,0xEA,0x00
337.699126999999976,,0x78,0xEA
337.700407999999982,,0x09,0x78
337.701689999999985,,0xB8,0x00
337.702971999999988,,0x07,0x8C
337.704252999999994,,0xE7,0x61
337.705534999999998,,0x82,0x00
337.706878000000017,,0x68,0x00
337.708220999999980,,0xBD,0x00
337.709501999999986,,0xE7,0x00
337.710783999999990,,0xBC,0x00
337.712065999999993,,0x67,0x00
337.713347999999996,,0xAF,0x00
337.714629000000002,,0xE7,0x00
337.715911000000006,,0x73,0x00
337.717193000000009,,0x01,0x00
337.718475000000012,,0x9C,0xA4
337.719756000000018,,0x0A,0x7F
337.721038000000021,,0x0F,0x23
337.722380999999984,,0x0B,0x1E
337.723724000000004,,0x05,0x14
337.725005000000010,,0x95,0x00
337.726287000000013,,0x01,0x21
337.727569000000017,,0x13,0x00
337.728851000000020,,0x00,0x61
337.730132000000026,,0xE2,0x00
337.731413999999972,,0x01,0x41
337.732695999999976,,0x05,0x00
337.733977999999979,,0x00,0x3B
337.735258999999985,,0xC2,0x00
337.736602000000005,,0x00,0x41
337.737945000000025,,0x98,0x00
337.739227000000028,,0x68,0x43
337.740507999999977,,0x00,0xA5
337.741789999999980,,0xFF,0x00
337.743071999999984,,0x19,0x1B
337.744353999999987,,0x00,0x00
337.745634999999993,,0x17,0x00
337.746916999999996,,0x1F,0x00
337.748199000000000,,0x2D,0x00
337.749481000000003,,0x18,0xFF
337.750762000000009,,0x66,0x21
337.752104999999972,,0x60,0x27
337.753447999999992,,0x57,0x62
337.754729999999995,,0xEA,0x00
337.756011000000001,,0x78,0xAC
337.757293000000004,,0x0D,0x15
337.758575000000008,,0x5E,0x00
337.759856000000013,,0x6D,0x03
337.761138000000017,,0x74,0x05
337.762420000000020,,0x3F,0x01
337.763702000000023,,0x64,0x1B
337.764982999999972,,0xE0,0x01
337.766325999999992,,0x74,0x1D
337.767669000000012,,0x17,0x01
337.768951000000015,,0x64,0x01
337.770232000000021,,0x32,0x01
337.771514000000025,,0x74,0x62
337.772796000000028,,0x33,0x00
337.774077999999975,,0x76,0xB4
337.775358999999980,,0xE4,0xD1
337.776640999999984,,0x1E,0x2D
337.777922999999987,,0x14,0x23
337.779204999999990,,0x1E,0x1E
337.780485999999996,,0x0A,0x1E
337.781829000000016,,0x59,0x00
337.783171999999979,,0x00,0x09
337.784453999999982,,0xFD,0x00
337.785734999999988,,0x80,0x1B
337.787016999999992,,0xA1,0x00
337.788298999999995,,0x00,0x11
337.789580999999998,,0x97,0x00
337.790862000000004,,0x81,0x0B
337.792144000000008,,0x1F,0x00
337.793426000000011,,0x00,0x12
337.794708000000014,,0xE8,0x00
337.796049999999980,,0x0E,0x0C
337.797393000000000,,0x00,0x24
337.798675000000003,,0xF9,0x00
337.799957000000006,,0x2A,0x1E
337.801238000000012,,0x00,0x00
337.802520000000015,,0x0C,0x00
337.803802000000019,,0x03,0x00
337.805084000000022,,0x5A,0x02
337.806365000000028,,0xCA,0xFF
337.807646999999974,,0x6F,0x10
337.808928999999978,,0x65,0x00
337.810209999999984,,0xDF,0x00
337.811553000000004,,0xFA,0x00
337.812896000000023,,0x7C,0xAC
337.814178000000027,,0x09,0x15
337.815458999999976,,0xB8,0x00
337.816740999999979,,0x07,0x03
337.818022999999982,,0x67,0x0C
337.819304999999986,,0x73,0x00
337.820585999999992,,0xE8,0xE6
337.821867999999995,,0x82,0x00
337.823149999999998,,0x68,0xAA
337.824432000000002,,0x1C,0x00
337.825774000000024,,0x67,0xFA
337.827116999999987,,0x00,0x00
337.828398999999990,,0x67,0xC4
337.829680999999994,,0xB2,0x00
337.830962000000000,,0x54,0x6E
337.832244000000003,,0x7D,0x60
337.833526000000006,,0x0F,0xDA
337.834808000000010,,0x0A,0x23
337.836089000000015,,0x0F,0x00
337.837371000000019,,0x18,0x00
337.838653000000022,,0x55,0x00
337.839935000000025,,0x00,0x0B
337.841276999999991,,0xF9,0x00
337.842620000000011,,0x00,0x1E
337.843902000000014,,0x9F,0x00
337.845184000000017,,0x00,0x10
337.846465000000023,,0xD4,0x00
337.847747000000027,,0x00,0x0E
337.849028999999973,,0xED,0x00
337.850310999999977,,0x01,0x14
337.851591999999982,,0x0C,0x00
337.852873999999986,,0x00,0x0F
337.854155999999989,,0x00,0x33
337.855499000000009,,0x00,0x01
337.856840999999974,,0x00,0x05
337.858122999999978,,0x00,0x26
337.859404999999981,,0x00,0x00
337.860686999999984,,0x00,0x14
337.861967999999990,,0x00,0x14
337.863249999999994,,0x00,0x2D
337.864531999999997,,0x00,0x35
337.865813000000003,,0x00,0x7B
337.867095000000006,,0x00,0x6D
337.868377000000010,,0x00,0x07
337.869659000000013,,0x00,0xEA
337.871000999999978,,0x00,0x78
337.872343999999998,,0x00,0x09
337.873626000000002,,0x00,0x5E
337.874908000000005,,0x00,0xED
337.876189000000011,,0x00,0x67
337.877471000000014,,0x00,0x50
337.878753000000017,,0x00,0x68
337.880035000000021,,0x00,0x54
337.881316000000027,,0x00,0x67
337.882597999999973,,0x00,0xA3
337.883879999999976,,0x00,0x69
337.885222999999996,,0x00,0x2A
337.886565000000019,,0x00,0x68
337.887847000000022,,0x00,0x5D
337.889129000000025,,0x00,0x5B
337.890410999999972,,0x00,0x29
337.891691999999978,,0x00,0x0F
337.892973999999981,,0x00,0x14
337.894255999999984,,0x00,0x0A
337.895537999999988,,0x00,0x0F
337.896818999999994,,0x00,0x55
337.898100999999997,,0x00,0x01
337.899383000000000,,0x00,0x05
337.900726000000020,,0x00,0x00
337.902067999999986,,0x00,0xD1
337.903349999999989,,0x00,0x00
337.904631999999992,,0x00,0x9A
337.905913999999996,,0x00,0x00
337.907195000000002,,0x00,0xC9
337.908477000000005,,0x00,0x00
337.909759000000008,,0x00,0xC7
337.911041000000012,,0x00,0x83
337.912322000000017,,0x00,0x01
337.913604000000021,,0x00,0x35
337.914946999999984,,0x00,0x49
337.916290000000004,,0x00,0x00
337.917571000000009,,0x00,0x18
337.918853000000013,,0x00,0x18
337.920135000000016,,0x00,0x03
337.921417000000019,,0x00,0x81
337.922698000000025,,0x00,0x5E
337.923979999999972,,0x00,0x85
337.925261999999975,,0x00,0x69
337.926542999999981,,0x00,0xEA
337.927824999999984,,0x00,0x78
337.929106999999988,,0x00,0x0B
337.930450000000008,,0x00,0xB6
337.931793000000027,,0x00,0xA8
337.933073999999976,,0x00,0x66
337.934355999999980,,0x00,0x92
337.935637999999983,,0x00,0x68
337.936918999999989,,0x00,0x77
337.938200999999992,,0x00,0x65
337.939482999999996,,0x00,0x2F
337.940764999999999,,0x00,0x69
337.942046000000005,,0x00,0x18
337.943328000000008,,0x00,0x69
337.944671000000028,,0x00,0x26
337.946013999999991,,0x00,0x60
337.947294999999997,,0x00,0xA6
337.948577000000000,,0x00,0x14
337.949859000000004,,0x00,0x0A
337.951141000000007,,0x00,0x14
337.952422000000013,,0x00,0x14
337.953704000000016,,0x00,0x55
337.954986000000019,,0x00,0x01
337.956268000000023,,0x00,0x35
337.957548999999972,,0x00,0x00
337.958830999999975,,0x00,0xED
337.960173999999995,,0x00,0x00
337.961517000000015,,0x00,0xC0
337.962798000000021,,0x00,0x01
337.964080000000024,,0x00,0x15
337.965362000000027,,0x00,0x01
337.966643999999974,,0x83,0x37
337.967924999999980,,0xD1,0x91
337.969206999999983,,0x80,0x84
337.970488999999986,,0x82,0x83
337.971770999999990,,0x8E,0x50
337.973051999999996,,0x8D,0x80
337.974395000000015,,0x50,0x92
337.975737999999978,,0x00,0x87
337.977019999999982,,0x00,0x50
337.978300999999988,,0x00,0x89
337.979582999999991,,0x00,0x80
337.980864999999994,,0x83,0x82
337.982146999999998,,0x91,0x83
337.983428000000004,,0x80,0x91
337.984710000000007,,0x83,0x80
337.985992000000010,,0x8E,0x82
337.987273000000016,,0x0D,0x8E
337.988555000000019,,0x78,0x8D
337.989897999999982,,0x00,0x50
337.991241000000002,,0x00,0x00
337.992522000000008,,0x00,0x00
337.993804000000011,,0x00,0x00
337.995086000000015,,0x83,0x00
337.996368000000018,,0x91,0x91
337.997649000000024,,0xC0,0x84
337.998931000000027,,0x82,0x83
338.000212999999974,,0x8F,0x50
338.001494999999977,,0x8D,0x80
338.002775999999983,,0x90,0x92
338.004119000000003,,0x00,0x87
338.005462000000023,,0x00,0x50
338.006744000000026,,0x00,0x89
338.008024999999975,,0x00,0x80
338.009306999999978,,0x83,0x82
338.010588999999982,,0x91,0x91
338.011870999999985,,0x80,0x84
338.013151999999991,,0xC2,0x83
338.014433999999994,,0x8E,0x50
338.015715999999998,,0x8D,0x80
338.016998000000001,,0x50,0x92
338.018279000000007,,0x00,0x87
338.019622000000027,,0x00,0x50
338.020964999999990,,0x00,0x89
338.022246999999993,,0x00,0x80
338.023527999999999,,0x00,0x82
338.024810000000002,,0x00,0x83
338.026092000000006,,0x00,0x91
338.027374000000009,,0x00,0x80
338.028655000000015,,0x00,0x82
338.029937000000018,,0x00,0x8E
338.031219000000021,,0x00,0x8D
338.032500000000027,,0x00,0x50
338.033842999999990,,0x00,0x00
338.035186000000010,,0x00,0x00
338.036468000000013,,0x00,0x00
338.037750000000017,,0x00,0x00
338.039031000000023,,0x00,0x83
338.040313000000026,,0x00,0x91
338.041594999999973,,0x00,0x80
338.042876999999976,,0x00,0x82
338.044157999999982,,0x00,0x8E
338.045439999999985,,0x00,0x8D
338.046721999999988,,0x00,0x50
338.048002999999994,,0x00,0x00
338.049346000000014,,0x00,0x00
338.050688999999977,,0x00,0x00
338.051970999999980,,0x82,0x00
338.053251999999986,,0x12,0x82
338.054533999999990,,0x82,0x87
338.055815999999993,,0x87,0x80
338.057097999999996,,0x9A,0x91
338.058379000000002,,0xC6,0x8C
338.059661000000006,,0x86,0x80
338.060943000000009,,0x8D,0x8D
338.062225000000012,,0x8D,0x83
338.063566999999978,,0xC0,0x84
338.064909999999998,,0x58,0x91
338.066192000000001,,0xE3,0x50
338.067474000000004,,0xA7,0x86
338.068755000000010,,0xE0,0x8E
338.070037000000013,,0xB2,0x8B
338.071319000000017,,0xAB,0x83
338.072601000000020,,0xE3,0x94
338.073882000000026,,0xC4,0x82
338.075163999999972,,0xAC,0x8A
338.076445999999976,,0xE3,0x50
338.077727999999979,,0x80,0x50
338.079070000000002,,0x70,0x50
338.080413000000021,,0xAF,0x50
338.081695000000025,,0xAB,0x91
338.082977000000028,,0xE3,0x80
338.084257999999977,,0xCF,0x93
338.085539999999980,,0x96,0x93
338.086821999999984,,0x8D,0x80
338.088103999999987,,0xAA,0x93
338.089384999999993,,0xB4,0x80
338.090666999999996,,0xAE,0x50
338.091949000000000,,0xAE,0x50
338.093292000000019,,0x50,0x50
338.094633999999985,,0xED,0x50
338.095915999999988,,0xE7,0x8F
338.097197999999992,,0xE7,0x88
338.098479999999995,,0xE7,0x83
338.099761000000001,,0x8B,0x86
338.101043000000004,,0x50,0x84
338.102325000000008,,0x09,0x98
338.103606000000013,,0x8B,0x50
338.104888000000017,,0x01,0x50
338.106170000000020,,0x03,0x50
338.107452000000023,,0x00,0x50
338.108793999999989,,0x00,0x50
338.110137000000009,,0x00,0x8C
338.111419000000012,,0x00,0x80
338.112701000000015,,0x00,0x86
338.113982000000021,,0x00,0x8C
338.115264000000025,,0x00,0x80
338.116546000000028,,0x00,0x91
338.117827999999975,,0x00,0x50
338.119108999999980,,0x00,0x50
338.120390999999984,,0x00,0x50
338.121672999999987,,0x00,0x50
338.123016000000007,,0x00,0x50
338.124357999999972,,0x00,0x8C
338.125639999999976,,0x00,0x84
338.126921999999979,,0x00,0x96
338.128203999999982,,0x00,0x93
338.129484999999988,,0x00,0x96
338.130766999999992,,0x00,0x8E
338.132048999999995,,0x00,0x50
338.133330999999998,,0x00,0x50
338.134612000000004,,0x00,0x50
338.135894000000008,,0x00,0x50
338.137176000000011,,0x08,0x50
338.138518999999974,,0x90,0xFF
338.139860999999996,,0x04,0x9F
338.141204000000016,,0xFD,0x07
338.142486000000019,,0xFD,0xFD
338.143768000000023,,0xFD,0xFD
338.145048999999972,,0xFD,0xFD
338.146330999999975,,0xFF,0xFD
338.147612999999978,,0xFD,0x00
338.148894999999982,,0x00,0x00
338.150175999999988,,0x00,0x00
338.151457999999991,,0x00,0x00
338.152739999999994,,0x00,0x00
338.154083000000014,,0x00,0x00
338.155424999999980,,0x00,0x00
338.156706999999983,,0x00,0xFF
338.157988999999986,,0x2C,0xFF
338.159270999999990,,0xFF,0x00
338.160551999999996,,0xFF,0x00
338.161833999999999,,0x00,0x00
338.163116000000002,,0x00,0x00
338.164397000000008,,0x00,0x00
338.165679000000011,,0x00,0x00
338.166961000000015,,0x00,0x00
338.168303999999978,,0x00,0x00
338.169646000000000,,0x00,0x00
338.170928000000004,,0x00,0x00
338.172210000000007,,0x00,0x00
338.173492000000010,,0x00,0x00
338.174773000000016,,0x00,0x00
338.176055000000019,,0x00,0x00
338.177337000000023,,0x00,0x00
338.178619000000026,,0x00,0x00
338.179899999999975,,0x00,0x00
338.181181999999978,,0x00,0x00
338.182463999999982,,0x00,0x00
338.183807000000002,,0x00,0x00
338.185149000000024,,0x00,0x00
338.186431000000027,,0x00,0x00
338.187712999999974,,0x00,0x00
338.188994999999977,,0x00,0x00
338.190275999999983,,0x00,0x00
338.191557999999986,,0x00,0x00
338.192839999999990,,0x00,0x00
338.194121999999993,,0x00,0x00
338.195402999999999,,0x00,0x00
338.196685000000002,,0x00,0x00
338.198028000000022,,0x00,0x00
338.199370999999985,,0x00,0x00
338.200651999999991,,0x00,0x00
338.201933999999994,,0x00,0x00
338.203215999999998,,0x00,0x00
338.204498000000001,,0x00,0x00
338.205779000000007,,0x00,0x00
338.207061000000010,,0x00,0x00
338.208343000000013,,0x00,0x00
338.209625000000017,,0x00,0x00
338.210906000000023,,0x00,0x00
338.212188000000026,,0x00,0x00
338.213530999999989,,0x00,0x00
338.214874000000009,,0x00,0x00
338.216155000000015,,0x00,0x00
338.217437000000018,,0x00,0x00
338.218719000000021,,0x00,0x00
338.220000000000027,,0x00,0x00
338.221281999999974,,0x00,0x00
338.222563999999977,,0x00,0x00
338.223845999999980,,0x00,0x00
338.225126999999986,,0x00,0x00
338.226408999999990,,0x00,0x00
338.227752000000010,,0x00,0x00
338.229094999999973,,0x00,0x00
338.230375999999978,,0x00,0x00
338.231657999999982,,0x00,0x00
338.232939999999985,,0x00,0x00
338.234221999999988,,0x00,0x00
338.235502999999994,,0x00,0x00
338.236784999999998,,0x00,0x00
338.238067000000001,,0x00,0x00
338.239349000000004,,0x00,0x00
338.240630000000010,,0x00,0x00
338.241912000000013,,0x00,0x00
338.243254999999976,,0x00,0x00
338.244597999999996,,0x00,0x00
338.245879000000002,,0x00,0x00
338.247161000000006,,0x00,0x00
338.248443000000009,,0x00,0x00
338.249725000000012,,0x00,0x00
338.251006000000018,,0x00,0x00
338.252288000000021,,0x00,0x00
338.253570000000025,,0x00,0x00
338.254852000000028,,0x00,0x00
338.256132999999977,,0x00,0x00
338.257475999999997,,0x00,0x00
338.258819000000017,,0x00,0x00
338.260101000000020,,0x00,0x00
338.261382000000026,,0x00,0x00
338.262663999999972,,0x00,0x00
338.263945999999976,,0x00,0x00
338.265227999999979,,0x00,0x00
338.266508999999985,,0x00,0x00
338.267790999999988,,0x00,0x00
338.269072999999992,,0x00,0x00
338.270353999999998,,0x00,0x00
338.271636000000001,,0x00,0x00
338.272979000000021,,0x00,0x00
338.274321999999984,,0x00,0x00
338.275603999999987,,0x00,0x00
338.276884999999993,,0x00,0x00
338.278166999999996,,0x00,0x00
338.279449000000000,,0x00,0x00
338.280730000000005,,0x00,0x00
338.282012000000009,,0x00,0x00
338.283294000000012,,0x00,0x00
338.284576000000015,,0x00,0x00
338.285857000000021,,0x00,0x00
338.287199999999984,,0x00,0x00
338.288543000000004,,0x00,0x00
338.289825000000008,,0x00,0x00
338.291106000000013,,0x00,0x00
338.292388000000017,,0x00,0x00
338.293670000000020,,0x00,0x00
338.294952000000023,,0x00,0x00
338.296232999999972,,0x00,0x00
338.297514999999976,,0x00,0x00
338.298796999999979,,0x00,0x00
338.300078999999982,,0x00,0x00
338.301359999999988,,0x00,0x00
338.302703000000008,,0x00,0x00
338.304046000000028,,0x00,0x00
338.305327999999975,,0x00,0x00
338.306608999999980,,0x00,0x00
338.307890999999984,,0x00,0x00
338.309172999999987,,0x00,0x00
338.310454999999990,,0x00,0x00
338.311735999999996,,0x00,0x00
338.313018000000000,,0x00,0x00
338.314300000000003,,0x00,0x00
338.315582000000006,,0x00,0x00
338.316923999999972,,0x00,0x00
338.318266999999992,,0x00,0x00
338.319548999999995,,0x00,0x00
338.320830999999998,,0x00,0x00
338.322112000000004,,0x00,0x00
338.323394000000008,,0x00,0x00
338.324676000000011,,0x00,0x00
338.325958000000014,,0x00,0x00
338.327239000000020,,0x00,0x00
338.328521000000023,,0x00,0x00
338.329803000000027,,0x00,0x00
338.331083999999976,,0x00,0x00
338.332426999999996,,0x00,0x00
338.333770000000015,,0x00,0x00
338.335052000000019,,0x00,0x00
338.336333000000025,,0x00,0x00
338.337615000000028,,0x00,0x00
338.338896999999974,,0x00,0x00
338.340178999999978,,0x00,0x00
338.341459999999984,,0x00,0x00
338.342741999999987,,0x00,0x00
338.344023999999990,,0x00,0x00
338.345305999999994,,0x00,0x00
338.346648000000016,,0x00,0x00
338.347990999999979,,0x00,0x00
338.349272999999982,,0x00,0x00
338.350554999999986,,0x00,0x00
338.351835999999992,,0x00,0x00
338.353117999999995,,0x00,0x00
338.354399999999998,,0x00,0x00
338.355682000000002,,0x00,0x00
338.356963000000007,,0x00,0x00
338.358245000000011,,0x00,0x00
338.359527000000014,,0x00,0x00
338.360809000000017,,0x00,0x00
338.362150999999983,,0x00,0x00
338.363494000000003,,0x00,0x00
338.364776000000006,,0x00,0x00
338.366058000000010,,0x00,0x00
338.367339000000015,,0x00,0x00
338.368621000000019,,0x00,0x00
338.369903000000022,,0x00,0x00
338.371185000000025,,0x00,0x00
338.372465999999974,,0x00,0x00
338.373747999999978,,0x00,0x00
338.375029999999981,,0x00,0x00
338.376373000000001,,0x00,0x00
338.377715000000023,,0x00,0x00
338.378997000000027,,0x00,0x00
338.380278999999973,,0x00,0x00
338.381560999999977,,0x00,0x00
338.382841999999982,,0x00,0x00
338.384123999999986,,0x00,0x00
338.385405999999989,,0x00,0x00
338.386686999999995,,0x00,0x00
338.387968999999998,,0x00,0x00
338.389251000000002,,0x00,0x00
338.390533000000005,,0x00,0x00
338.391875000000027,,0x00,0x00
338.393217999999990,,0x00,0x00
338.394499999999994,,0x00,0x00
338.395781999999997,,0x00,0x00
338.397063000000003,,0x00,0x00
338.398345000000006,,0x00,0x00
338.399627000000010,,0x00,0x00
344.279813999999988,,0x00,0x00
344.296537999999998,,0x00,0x6F
344.313627999999994,,0x6F,0x6F
344.330045999999982,,0x7F,0x6F
344.363494000000003,,0xFE,0x6F
344.380217000000016,,0x7F,0x6F
344.396941000000027,,0x6F,0x6F
344.414762999999994,,0x6F,0x6F
344.430449000000010,,0x6F,0x6F
344.447233999999980,,0x6F,0x6F
344.464079000000027,,0xEF,0x6F
344.480742000000021,,0x6F,0x6F
344.497465999999974,,0x6F,0x6F
344.514616999999987,,0x6F,0x6F
344.530974000000015,,0x00,0x6F
344.547637000000009,,0x00,0x00
344.564420999999982,,0x00,0x00
344.581144999999992,,0x00,0x00
344.599088999999992,,0x00,0x00
344.614652999999976,,0x00,0x00
344.631376999999986,,0x00,0x00
344.648099999999999,,0x00,0x00
344.664945999999986,,0x00,0x00
344.681669999999997,,0x00,0x00
